(0.0019609928131103516) can1 18F11031#0000FFFFFFFFFFFF
(0.0039556026458740234) can1 18F11031#0000FFFFFFFFFFFF
(0.005917072296142578) can1 18F11031#0000FFFFFFFFFFFF
(0.007873296737670898) can1 18F11031#0000FFFFFFFFFFFF
(0.009825944900512695) can1 18F11031#0000FFFFFFFFFFFF
(0.011777162551879883) can1 18F11031#0000FFFFFFFFFFFF
(0.013809919357299805) can1 18F11031#0000FFFFFFFFFFFF
(0.01575303077697754) can1 18F11031#0000FFFFFFFFFFFF
(0.017688512802124023) can1 0CFD9200#F4FFFAFFFFFFFFFF
(0.019622325897216797) can1 18F11031#0000FFFFFFFFFFFF
(0.021575927734375) can1 18F11031#0000FFFFFFFFFFFF
(0.023510456085205078) can1 18F11031#0000FFFFFFFFFFFF
(0.025444507598876953) can1 18FEF200#00000000AA08FAFF
(0.027381420135498047) can1 18F11031#0000FFFFFFFFFFFF
(0.029318571090698242) can1 18F00131#FFFFFF3F00FFFFFF
(0.03124856948852539) can1 18FEF131#F7FFFFC3CCFFFFF0
(0.033179521560668945) can1 18FEF031#FFFFFFFFFFFCCCFF
(0.035108327865600586) can1 18FEFC31#FF32FFFFFFFF00FF
(0.0370640754699707) can1 18FEAE31#FFFF0401FFFFFFFF
(0.03903055191040039) can1 18FEF731#FFFFFFFFEF00FFFF
(0.04106616973876953) can1 18FF4831#0000FFFF00000000
(0.043041229248046875) can1 18FD8331#F8FFFFFFFFFFFFFF
(0.04497647285461426) can1 18FEF831#FFFFFFFFFFFFFFFF
(0.04691362380981445) can1 18FEF231#FFFFFFFFFFFFFFFF
(0.04886150360107422) can1 18FEFA31#FF0802FFFFFFFFFF
(0.05078864097595215) can1 18FEC131#5FF21005FFFFFFFF
(0.052722930908203125) can1 0CFD9200#F4FFFAFFFFFFFFFF
(0.05474352836608887) can1 0CF00331#FFFFFFFFFFFFFFFF
(0.05668830871582031) can1 0CF00331#FFFFFFFFFFFFFFFF
(0.05863142013549805) can1 18EEFF03#6400400000030310
(0.060567378997802734) can1 18FECA03#00FF00000000FFFF
(0.06251025199890137) can1 18F00131#FFFFFF3F00FFFFFF
(0.06445026397705078) can1 18FEF131#F7FFFFC3CCFFFFF0
(0.06640386581420898) can1 18FEF031#FFFFFFFFFFFCCCFF
(0.06836271286010742) can1 18FF4831#0000FFFF00000000
(0.0703115463256836) can1 18FEF231#FFFFFFFFFFFFFFFF
(0.07225608825683594) can1 0CF00331#FFFFFFFFFFFFFFFF
(0.07420563697814941) can1 18FE4A03#034F4FFFFFF3FFFF
(0.07613468170166016) can1 0CF00331#FFFFFFFFFFFFFFFF
(0.07889413833618164) can1 18F0010B#CFFFF0FFFFDCFFFF
(0.08457565307617188) can1 18FEBF0B#00007D7D7D7DFFFF
(0.08652877807617188) can1 18EAFFFE#00EE00
(0.08846712112426758) can1 18FECA0B#04FF00000000FFFF
(0.09040546417236328) can1 18F00131#FFFFFF3F00FFFFFF
(0.09233307838439941) can1 18FEF131#F7FFFFC3CCFFFFF0
(0.09430289268493652) can1 18FEF031#FFFFFFFFFFFCCCFF
(0.09622573852539062) can1 18FF4831#0000FFFF00000000
(0.09815454483032227) can1 18FEF231#FFFFFFFFFFFFFFFF
(0.10008835792541504) can1 0CF00331#FFFFFFFFFFFFFFFF
(0.10202646255493164) can1 18EEFF03#6400400000030310
(0.10396194458007812) can1 18EAFF00#EBFE00
(0.1058964729309082) can1 18FE4A03#035F4FFFFFF3FFFF
(0.10783171653747559) can1 0CF00331#FFFFFFFFFFFFFFFF
(0.10982227325439453) can1 18EEFF00#F4B84E0100000000
(0.11181950569152832) can1 18EEFF29#F4B84E01000C0000
(0.11375880241394043) can1 0CFD9200#F4FFFAFFFFFFFFFF
(0.11568999290466309) can1 18F0010B#CFFFF0FFFFDCFFFF
(0.11762380599975586) can1 18FEBF0B#00007D7D7D7DFFFF
(0.11955547332763672) can1 18FEF200#00000000AA08FAFF
(0.1214902400970459) can1 18FEDF00#7DA0287D7DFFFFFC
(0.12342405319213867) can1 1CECFF31#20170004FFEBFE00
(0.12534689903259277) can1 0CF00400#0E7D7D0000FE007D
(0.12728452682495117) can1 18FEDF00#7DA0287D7DFFFFFC
(0.12917494773864746) can1 18F00131#FFFFFF3F00FFFFFF
(0.13112759590148926) can1 18FEF200#00000000AA08FAFF
(0.13306379318237305) can1 18FEF131#F7FFFFC3CCFFFFF0
(0.13500237464904785) can1 18FEF031#FFFFFFFFFFFCCCFF
(0.13698840141296387) can1 18FF4831#0000FFFF00000000
(0.13890981674194336) can1 0CFD9200#F4FFFAFFFFFFFFFF
(0.1408383846282959) can1 18FEF231#FFFFFFFFFFFFFFFF
(0.1427757740020752) can1 0CF00331#FFFFFFFFFFFFFFFF
(0.1447005271911621) can1 0CF00300#C10000FFFF0F007D
(0.1466360092163086) can1 0CF00400#0E7D7D0000FE007D
(0.1485738754272461) can1 1CECFF0B#201B0004FFEBFE00
(0.15077567100524902) can1 18FEDF00#7DA0287D7DFFFFF0
(0.15272092819213867) can1 0CF00300#C10000FFFF0F727D
(0.15465140342712402) can1 0C000003#E7FFFA89FFF5FFFF
(0.15658235549926758) can1 0CF00203#C00000FFF7000003
(0.15851306915283203) can1 0CF00C03#00FB0000FFFFFFFF
(0.16043806076049805) can1 0CF00400#0E7D7D000000007D
(0.1623857021331787) can1 1CEBFF31#0150414343522A43
(0.16431879997253418) can1 0C000003#E7FFFA8AFFF4FFFF
(0.16624093055725098) can1 0CF00203#C00000FFF7000003
(0.16820049285888672) can1 18ECFF03#20160004FFEBFE00
(0.17013883590698242) can1 18FEDF00#7DA0287D7DFFFFF0
(0.17206907272338867) can1 0CF00300#C10000FFFF0F727D
(0.17400002479553223) can1 0CFD9200#F4FFFAFFFFFFFFFF
(0.1759490966796875) can1 0C000003#E7FFFA8AFFF4FFFF
(0.17789053916931152) can1 0CF00203#C00000FFF7000003
(0.17982792854309082) can1 0CF00C03#00FB0000FFFFFFFF
(0.18175649642944336) can1 18F00503#7D00007D4E204E43
(0.1836872100830078) can1 18FE4A03#035F4FFFFFF3FFFF
(0.18561625480651855) can1 18EAFF03#E3FE00
(0.18754124641418457) can1 18FCE700#7D7D7D7D7D7D7DFF
(0.18948030471801758) can1 1CECFF00#20220005FFE3FE00
(0.19141554832458496) can1 18F03300#FFFFFFFFFFFFFFFF
(0.1933445930480957) can1 0CF00400#0E7D7D000003007D
(0.19527006149291992) can1 0CF00331#FFFFFFFFFFFFFFFF
(0.19719481468200684) can1 18FECA31#00FF00000000FFFF
(0.1991262435913086) can1 0C000003#E7FFFA8BFFF4FFFF
(0.20116376876831055) can1 0CF00203#C02000FFF7000003
(0.20313715934753418) can1 18FEDF00#7DA0287D7DFFFFF0
(0.20506930351257324) can1 18F0010B#CFFFF0FFFFDCFFFF
(0.2069988250732422) can1 0CF00300#C10000FFFF0F727D
(0.20892882347106934) can1 0C000003#E7FFFA8BFFF4FFFF
(0.21099162101745605) can1 0CF00203#C02000FFF7000003
(0.21292686462402344) can1 0CF00C03#00FB0000FFFFFFFF
(0.2148580551147461) can1 18FEEE00#37FFFFFFFFFFFFFF
(0.21677780151367188) can1 0CF00400#0E7D7D000003007D
(0.2187058925628662) can1 18FEBF0B#00007D7D7D7DFFFF
(0.2206418514251709) can1 0C000003#E7FFFA8BFFF3FFFF
(0.22256898880004883) can1 0CF00203#C02700FFF7000003
(0.22450995445251465) can1 18FEDF00#7DA0287D7DFFFFF0
(0.22645306587219238) can1 1CEBFF31#02454355332D4E41
(0.22838902473449707) can1 0CF00300#C10000FFFF0F727D
(0.23032593727111816) can1 0C000003#E7FFFA8BFFF3FFFF
(0.2322554588317871) can1 0CF00203#C02700FFF7000003
(0.23418331146240234) can1 0CF00C03#00FB0000FFFFFFFF
(0.23655915260314941) can1 18EBFF03#01414C4C534E2A32
(0.23850083351135254) can1 0CF00400#0E7D7D000003007D
(0.24043798446655273) can1 0CF00A00#00000000FFFFFFFF
(0.24237418174743652) can1 0C000003#E7FFFA8CFFF2FFFF
(0.24438261985778809) can1 0CF00203#C02800FFF7000003
(0.246321439743042) can1 18F03300#FFFFFFFFFFFFFFFF
(0.24832868576049805) can1 18FEDF00#7DA0287D7DFFFFF0
(0.25028228759765625) can1 18F00131#FFFFFF3F00FFFFFF
(0.25221896171569824) can1 18FEF200#00000000AA08FAFF
(0.2541463375091553) can1 18FEF200#00000000AA08FAFF
(0.25607776641845703) can1 1CEBFF00#0100007D00007D00
(0.2580070495605469) can1 18FEF131#F7FFFFC3CCFFFFF0
(0.2599318027496338) can1 18FEF031#FFFFFFFFFFFCCCFF
(0.2618701457977295) can1 18F11031#0000FFFFFFFFFFFF
(0.2638053894042969) can1 18FF4831#0000FFFF00000000
(0.2657337188720703) can1 0CF00300#C10000FFFF0F727D
(0.26772522926330566) can1 0C000003#E7FFFA8CFFF2FFFF
(0.26967334747314453) can1 18FEF231#FFFFFFFFFFFFFFFF
(0.2716336250305176) can1 0CF00203#C02800FFF7000003
(0.27356553077697754) can1 0CF00331#FFFFFFFFFFFFFFFF
(0.27550578117370605) can1 0CF00C03#00FB0000FFFFFFFF
(0.27744364738464355) can1 0CF00400#0E7D7D000003007D
(0.27938318252563477) can1 1CEBFF0B#01424E4457532A45
(0.2813148498535156) can1 0C010305#FFFFFFFFFFF3FFFF
(0.283245325088501) can1 0C000003#E7FFFA8DFFF1FFFF
(0.2851715087890625) can1 0CF00203#C02900FFF7000003
(0.2871057987213135) can1 18FEDF00#7DA0287D7DFFFFF0
(0.2890610694885254) can1 0CF00300#C10000FFFF0F727D
(0.2910161018371582) can1 0C000003#E7FFFA8DFFF1FFFF
(0.2929728031158447) can1 18FEF200#00000000AA08FAFF
(0.29491591453552246) can1 0CF00203#C02900FFF7000003
(0.29685139656066895) can1 0CF00C03#00FB0000FFFFFFFF
(0.2987797260284424) can1 0CFD9200#F4FFFAFFFFFFFFFF
(0.30071473121643066) can1 0CF00400#0E7D7D000003007D
(0.3026423454284668) can1 1CEBFF31#034D5558322A202A
(0.3045783042907715) can1 0C000003#E7FFFA8EFFF1FFFF
(0.3065919876098633) can1 0CF00203#C02900FFF7000003
(0.3085341453552246) can1 18EBFF03#023130302D323230
(0.3105189800262451) can1 18FEDF00#7DA0287D7DFFFFF0
(0.31245923042297363) can1 0CF00300#C10000FFFF0F727D
(0.3145139217376709) can1 0CF00A00#00000000FFFFFFFF
(0.3164486885070801) can1 0C000003#E7FFFA8EFFF1FFFF
(0.3183929920196533) can1 18F00E00#FFFFFFFFFFFFFFFF
(0.3203256130218506) can1 0CF00203#C02900FFF7000003
(0.322251558303833) can1 0CF00C03#00FB0000FFFFFFFF
(0.32456207275390625) can1 18F00503#7D00007D4E204E43
(0.32650303840637207) can1 18FE4A03#035F4FFFFFF3FFFF
(0.32844114303588867) can1 18F03300#FFFFFFFFFFFFFFFF
(0.33040618896484375) can1 0CF00400#0E7D7D000003007D
(0.3323347568511963) can1 0CF00331#FFFFFFFFFFFFFFFF
(0.3342704772949219) can1 1CEBFF00#02007D00007D0000
(0.33644771575927734) can1 0C000003#E7FFFA8FFFF0FFFF
(0.33838701248168945) can1 0CF00203#C02900FFF7000003
(0.34032320976257324) can1 18FEDF00#7DA0287D7DFFFFF0
(0.3422975540161133) can1 18F00F00#FFFFFFFFFFFFFFFF
(0.34423160552978516) can1 18F0010B#CFFFF0FFFFDCFFFF
(0.3461644649505615) can1 0C010305#FFFFFFFFFFF3FFFF
(0.3480973243713379) can1 0C000003#E7FFFA8FFFF0FFFF
(0.35030508041381836) can1 0CF00300#C10000FFFF0F727D
(0.35291481018066406) can1 0CF00203#C02900FFF7000003
(0.3548572063446045) can1 0CF00C03#00FB0000FFFFFFFF
(0.35680508613586426) can1 0CF00400#0E7D7D0000030F7D
(0.3587377071380615) can1 18FEBF0B#00007D7D7D7DFFFF
(0.3606693744659424) can1 0C000003#E7FFFA90FFF7FFFF
(0.36260461807250977) can1 0CF00203#C02900FFF7000003
(0.36455225944519043) can1 18FEDF00#7DA0287D7DFFFFF0
(0.3666083812713623) can1 1CEBFF31#04202AFFFFFFFFFF
(0.3686177730560303) can1 18FCDC00#9FFFFFFF9C681C00
(0.37058448791503906) can1 0CF00300#C10000FFFF0F727D
(0.3725426197052002) can1 0C000003#E7FFFA90FFF7FFFF
(0.374481201171875) can1 0CF00203#C02900FFF7000003
(0.37642788887023926) can1 0CF00C03#00FB0000FFFFFFFF
(0.3784618377685547) can1 18EBFF03#0330205244532A2A
(0.38042187690734863) can1 0CF00400#0E7D7D0000030F7D
(0.3823511600494385) can1 0CF00A00#00000000FFFFFFFF
(0.3843231201171875) can1 18F00E00#FFFFFFFFFFFFFFFF
(0.38631749153137207) can1 0C000003#E7FFFA91FFF6FFFF
(0.38825178146362305) can1 0CF00203#C02900FFF7000003
(0.39025354385375977) can1 0CFD9200#F4FFFAFFFFFFFFFF
(0.39223647117614746) can1 18F03300#FFFFFFFFFFFFFFFF
(0.394183874130249) can1 18FEDF00#7DA0287D7DFFFFF0
(0.39612770080566406) can1 18F00131#FFFFFF3F00FFFFFF
(0.3980727195739746) can1 18FEF131#F7FFFFC3CCFFFFF0
(0.40000081062316895) can1 18FEF031#FFFFFFFFFFFCCCFF
(0.4019343852996826) can1 18FF4831#0000FFFF00000000
(0.4039630889892578) can1 18FEF231#FFFFFFFFFFFFFFFF
(0.4058971405029297) can1 0CF00331#FFFFFFFFFFFFFFFF
(0.40782737731933594) can1 18FEE000#73490300BCE03300
(0.4097614288330078) can1 0C000003#E7FFFA91FFF6FFFF
(0.4116973876953125) can1 0CF00300#C10000FFFF0F657D
(0.4136369228363037) can1 0CF00203#C02900FFF7000003
(0.4155707359313965) can1 0CF00C03#00FB0000FFFFFFFF
(0.4175078868865967) can1 18F00F00#FFFFFFFFFFFFFFFF
(0.41944146156311035) can1 0CF00400#0E7D7D0000030F7D
(0.4213697910308838) can1 1CEBFF00#037DFFFFFFFF5504
(0.42330288887023926) can1 1CEBFF0B#024336302D737461
(0.42525434494018555) can1 0C010305#FFFFFFFFFFF3FFFF
(0.42719221115112305) can1 0C000003#E7FFFA92FFF5FFFF
(0.4291563034057617) can1 0CF00203#C02900FFF7000003
(0.4311802387237549) can1 18FEDF00#7DA0287D7DFFFFF0
(0.4331209659576416) can1 0CF00300#C10000FFFF0F6A7D
(0.43512678146362305) can1 0C000003#E7FFFA92FFF5FFFF
(0.43708348274230957) can1 0CF00203#C02900FFF7000003
(0.43901610374450684) can1 0CF00C03#00FB0000FFFFFFFF
(0.44095325469970703) can1 0CF00400#0E7D7D0000030F7D
(0.44289255142211914) can1 18FEF200#00000000AA08FAFF
(0.4448206424713135) can1 0C000003#E7FFFA93FFF5FFFF
(0.4467465877532959) can1 0CF00203#C02900FFF7000003
(0.4486699104309082) can1 0CFD9200#F4FFFAFFFFFFFFFF
(0.4505906105041504) can1 18EBFF03#042AFFFFFFFFFFFF
(0.45253992080688477) can1 18FEDF00#7DA0287D7DFFFFF0
(0.45447564125061035) can1 0CF00300#C10000FFFF0F6A7D
(0.45641350746154785) can1 0CF00A00#00000000FFFFFFFF
(0.45834803581237793) can1 0C000003#E7FFFA93FFF5FFFF
(0.46027421951293945) can1 18F00E00#FFFFFFFFFFFFFFFF
(0.46221232414245605) can1 0CF00203#C02900FFF7000003
(0.46414971351623535) can1 0CF00C03#00FB0000FFFFFFFF
(0.46609067916870117) can1 18FEF200#00000000AA08FAFF
(0.46802735328674316) can1 18F00503#7D00007D4E204E43
(0.4699561595916748) can1 18FE4A03#035F4FFFFFF3FFFF
(0.47190165519714355) can1 18F03300#FFFFFFFFFFFFFFFF
(0.4738461971282959) can1 0CF00400#0E7D7D0000030F7D
(0.47578883171081543) can1 0CF00331#FFFFFFFFFFFFFFFF
(0.47772979736328125) can1 0C000003#E7FFFA94FFF4FFFF
(0.4796459674835205) can1 0CF00203#C02900FFF7000003
(0.48157715797424316) can1 18FEDF00#7DA0287D7DFFFFF0
(0.48349928855895996) can1 18F00F00#FFFFFFFFFFFFFFFF
(0.4854238033294678) can1 0CF00300#C10000FFFF0F6A7D
(0.4873626232147217) can1 0C010305#FFFFFFFFFFF3FFFF
(0.4892868995666504) can1 18FEF200#00000000AA08FAFF
(0.49122047424316406) can1 0C000003#E7FFFA94FFF4FFFF
(0.4931657314300537) can1 18F0010B#CFFFF0FFFFDCFFFF
(0.4951198101043701) can1 0CF00203#C02900FFF7000003
(0.49704861640930176) can1 1CEBFF00#04385E1446FF7D7D
(0.4989771842956543) can1 18FEF200#00000000AA08FAFF
(0.5009758472442627) can1 0CF00C03#00FB0000FFFFFFFF
(0.5029845237731934) can1 0CF00400#0E7D7D0000030F7D
(0.5049209594726562) can1 10FDA300#FFFFB1FFFFFFFFFF
(0.5068578720092773) can1 18FEBF0B#00007D7D7D7DFFFF
(0.5087883472442627) can1 0C000003#E7FFFA94FFF3FFFF
(0.5107221603393555) can1 0CF00203#C02900FFF7000003
(0.5126547813415527) can1 18FEDF00#7DA0287D7DFFFFF0
(0.5145938396453857) can1 18FCDC00#9FFFFFFF9C682800
(0.5166220664978027) can1 0CF00300#C10000FFFF0F6A7D
(0.5185744762420654) can1 0C000003#E7FFFA94FFF3FFFF
(0.5205256938934326) can1 0CF00203#C02900FFF7000003
(0.5224857330322266) can1 0CF00C03#00FB0000FFFFFFFF
(0.5244250297546387) can1 0CF00400#0E7D7D0000030F7D
(0.5264186859130859) can1 0CF00A00#00000000FFFFFFFF
(0.5284268856048584) can1 18FD9400#0000FFFFFFFFFFFF
(0.5303771495819092) can1 0C000003#E7FFFA95FFF2FFFF
(0.5323135852813721) can1 18F00E00#FFFFFFFFFFFFFFFF
(0.5342400074005127) can1 0CF00203#C02900FFF7000003
(0.53621506690979) can1 18F03300#FFFFFFFFFFFFFFFF
(0.5381579399108887) can1 18FEDF00#7DA0287D7DFFFFF0
(0.5401132106781006) can1 18F00131#FFFFFF3F00FFFFFF
(0.5420534610748291) can1 18FEF131#F7FFFFC3CCFFFFF0
(0.5440809726715088) can1 18FEF031#FFFFFFFFFFFCCCFF
(0.5460188388824463) can1 0CFD9200#F4FFFAFFFFFFFFFF
(0.5479526519775391) can1 18FF4831#0000FFFF00000000
(0.5498862266540527) can1 18FEF231#FFFFFFFFFFFFFFFF
(0.5518178939819336) can1 18FEF200#00000000AA08FAFF
(0.553764820098877) can1 0CF00331#FFFFFFFFFFFFFFFF
(0.5557107925415039) can1 18FEE000#73490300BCE03300
(0.5576465129852295) can1 0C000003#E7FFFA95FFF2FFFF
(0.5595736503601074) can1 0CF00300#C10000FFFF0F6A7D
(0.5615036487579346) can1 0CF00203#C02900FFF7000003
(0.5634424686431885) can1 0CF00C03#00FB0000FFFFFFFF
(0.565394401550293) can1 18F00F00#FFFFFFFFFFFFFFFF
(0.5673377513885498) can1 0CF00400#0E7D7D0000030F7D
(0.5692839622497559) can1 18FEF200#00000000AA08FAFF
(0.5712184906005859) can1 1CEBFF0B#032A4E3136313330
(0.5732226371765137) can1 0C010305#FFFFFFFFFFF3FFFF
(0.5751593112945557) can1 18FEF200#00000000AA08FAFF
(0.5770964622497559) can1 0C000003#E7FFFA96FFF1FFFF
(0.5790364742279053) can1 0CF00203#C00800FFF7000003
(0.5810163021087646) can1 18FEDF00#7DA0287D7DFFFFF0
(0.5829441547393799) can1 10FCFD00#FFFFFFFF5951FFFF
(0.5848724842071533) can1 1CEBFF00#05FFFF8600F702FF
(0.5868005752563477) can1 0CF00300#C10000FFFF0F6A7D
(0.5887248516082764) can1 0C000003#E7FFFA96FFF1FFFF
(0.5907552242279053) can1 0CF00203#C00800FFF7000003
(0.5926833152770996) can1 0CF00C03#00FB0000FFFFFFFF
(0.5946123600006104) can1 18FD7C00#F8830100C31F03FF
(0.596534013748169) can1 0CF00400#0E7D7D0000030F7D
(0.5984573364257812) can1 0C000003#E4FFFA97FFF1FFFF
(0.600470781326294) can1 0CF00203#C00000FFF7000003
(0.6024174690246582) can1 18FEDF00#7DA0287D7DFFFFF0
(0.6044995784759521) can1 0CF00300#C10000FFFF0F6A7D
(0.6064443588256836) can1 0CF00A00#00000000FFFFFFFF
(0.6084058284759521) can1 0CF00203#C00000FFF7000003
(0.6103334426879883) can1 18FEF000#FFFFFFE015FFFFFF
(0.6122734546661377) can1 0CF00C03#00FB0000FFFFFFFF
(0.6142120361328125) can1 18F00E00#FFFFFFFFFFFFFFFF
(0.6162252426147461) can1 0CFD9200#F4FFFAFFFFFFFFFF
(0.6181597709655762) can1 18F00503#7D00007D4E204E43
(0.6201567649841309) can1 18FE4A03#035F4FFFFFF3FFFF
(0.6220917701721191) can1 18F03300#FFFFFFFFFFFFFFFF
(0.624030590057373) can1 0CF00400#0E7D7D0000000F7D
(0.6259686946868896) can1 0CF00331#FFFFFFFFFFFFFFFF
(0.6278951168060303) can1 0CF00203#C00000FFF7000003
(0.6298270225524902) can1 18FEDF00#7DA0287D7DFFFFF0
(0.6317911148071289) can1 18F00F00#FFFFFFFFFFFFFFFF
(0.6337299346923828) can1 0CF00300#C10000FFFF0F6A7D
(0.6356680393218994) can1 0C010305#FFFFFFFFFFF3FFFF
(0.637608528137207) can1 0CF00203#C00000FFF7000003
(0.639535665512085) can1 0CFD9200#F4FFFAFFFFFFFFFF
(0.6414690017700195) can1 18F0010B#CFFFF0FFFFDCFFFF
(0.643406867980957) can1 0CF00C03#00FB0000FFFFFFFF
(0.6466705799102783) can1 18FEF100#FF1C00FCFF6800CF
(0.6486108303070068) can1 0CF00400#0E7D7D0000000F7D
(0.6505358219146729) can1 10FDA300#FFFF9CFFFFFFFFFF
(0.6524612903594971) can1 18FEBF0B#00007D7D7D7DFFFF
(0.6543874740600586) can1 0CF00203#C00000FFF7000003
(0.6563892364501953) can1 18FEDF00#7DA0287D7DFFFFF0
(0.6583354473114014) can1 18FCDC00#9FFFFFFF9C681C00
(0.660261869430542) can1 0CF00300#C10000FFFF0F6A7D
(0.6622109413146973) can1 0CF00203#C00000FFF7000003
(0.6641502380371094) can1 1CFE9200#FF4C7DFFFFFF0000
(0.6660897731781006) can1 0CF00C03#00FB0000FFFFFFFF
(0.6680288314819336) can1 0CF00400#0E7D7D0000000F7D
(0.6699662208557129) can1 0CF00A00#00000000FFFFFFFF
(0.6719169616699219) can1 18FD9400#0000FFFFFFFFFFFF
(0.6738448143005371) can1 0CF00203#C00000FFF7000003
(0.6757795810699463) can1 18F00E00#FFFFFFFFFFFFFFFF
(0.6777851581573486) can1 18F03300#FFFFFFFFFFFFFFFF
(0.6797618865966797) can1 18FEDF00#7DA0287D7DFFFFF0
(0.6817667484283447) can1 18F00131#FFFFFF3F00FFFFFF
(0.6836509704589844) can1 18FEF131#F7FFFFC3CCFFFFF0
(0.6855816841125488) can1 18FEF031#FFFFFFFFFFFCCCFF
(0.6875145435333252) can1 18FF4831#0000FFFF00000000
(0.6894464492797852) can1 18FEF231#FFFFFFFFFFFFFFFF
(0.6913876533508301) can1 0CF00331#FFFFFFFFFFFFFFFF
(0.6933364868164062) can1 18FEE000#73490300BCE03300
(0.6952879428863525) can1 0CF00203#C00000FFF7000003
(0.697235107421875) can1 0CF00300#C10000FFFF0F6A7D
(0.6992442607879639) can1 0CF00C03#00FB0000FFFFFFFF
(0.7011945247650146) can1 18FEF200#0000FF7FAA08E1FF
(0.7032101154327393) can1 18F00F00#FFFFFFFFFFFFFFFF
(0.7051568031311035) can1 0CF00400#0E7D7D0000000F7D
(0.7071478366851807) can1 1CEBFF0B#04303933392A2AFF
(0.7091655731201172) can1 0C010305#FFFFFFFFFFF3FFFF
(0.7111020088195801) can1 0CF00203#C00000FFF7000003
(0.7130999565124512) can1 18FEDF00#7DA0287D7DFFFFF0
(0.7150449752807617) can1 10FCFD00#FFFFFFFF5951FFFF
(0.7169792652130127) can1 0CF00300#C10000FFFF0F6A7D
(0.719024658203125) can1 0CF00203#C00000FFF7000003
(0.7209680080413818) can1 0CF00C03#00FB0000FFFFFFFF
(0.7229032516479492) can1 18F00100#FFFFFFFFFFFFFFFF
(0.7249162197113037) can1 0CF00400#0E7D7D0000000F7D
(0.7268602848052979) can1 0CF00203#C00000FFF7000003
(0.7288012504577637) can1 18FEDF00#7DA0287D7DFFFFF0
(0.7307426929473877) can1 0CF00300#C10000FFFF0F6A7D
(0.732677698135376) can1 0CF00A00#00000000FFFFFFFF
(0.7346148490905762) can1 0CF00203#C00000FFF7000003
(0.7365527153015137) can1 18FEF000#FFFFFFE015FFFFFF
(0.7384967803955078) can1 0CF00C03#00FB0000FFFFFFFF
(0.7404286861419678) can1 18F00E00#FFFFFFFFFFFFFFFF
(0.7423691749572754) can1 18F00503#7D00007D4E204E43
(0.7442998886108398) can1 18FE4A03#035F4FFFFFF3FFFF
(0.7462332248687744) can1 18F03300#FFFFFFFFFFFFFFFF
(0.7482357025146484) can1 0CF00400#0E7D7D0000000F7D
(0.7501788139343262) can1 0CF00331#FFFFFFFFFFFFFFFF
(0.752204179763794) can1 18FCF200#E1FFFFFFFFFFFFFF
(0.7541429996490479) can1 0CF00203#C00000FFF7000003
(0.7560727596282959) can1 18FEDF00#7DA0287D7DFFFFF0
(0.7580041885375977) can1 18F00F00#FFFFFFFFFFFFFFFF
(0.7600102424621582) can1 0CF00300#C10000FFFF0F6A7D
(0.7619593143463135) can1 18FEF200#00000000AA08FAFF
(0.7639360427856445) can1 0C010305#FFFFFFFFFFF3FFFF
(0.7658665180206299) can1 0CF00203#C00000FFF7000003
(0.7678036689758301) can1 18F0010B#CFFFF0FFFFDCFFFF
(0.7697410583496094) can1 0CF00C03#00FB0000FFFFFFFF
(0.7716889381408691) can1 18FEF200#00000000AA08FAFF
(0.7736258506774902) can1 18FEF100#FF0800FCFF6800CF
(0.7756121158599854) can1 0CF00400#0E7D7D0000000F7D
(0.7775516510009766) can1 10FDA300#FFFF91FFFFFFFFFF
(0.7794923782348633) can1 18FEBF0B#00007D7D7D7DFFFF
(0.7814288139343262) can1 0CF00203#C00000FFF7000003
(0.7833623886108398) can1 18F00029#F07D7DF329FFFF7D
(0.7852988243103027) can1 18FEDF00#7DA0287D7DFFFFF0
(0.7872319221496582) can1 18FCDC00#9FFFFFFF9C680800
(0.7891590595245361) can1 0CF00300#C10000FFFF0F6A7D
(0.7911074161529541) can1 0CF00203#C00000FFF7000003
(0.7931699752807617) can1 1CFE9200#FF487DFFFFFF0000
(0.7950975894927979) can1 0CF00C03#00FB0000FFFFFFFF
(0.7970259189605713) can1 0CF00400#0E7D7D0000000F7D
(0.7989516258239746) can1 0CF00A00#00000000FFFFFFFF
(0.8008785247802734) can1 18FD9400#0000FFFFFFFFFFFF
(0.802804708480835) can1 0CF00203#C00000FFF7000003
(0.8048219680786133) can1 18F00E00#FFFFFFFFFFFFFFFF
(0.8067889213562012) can1 18F03300#FFFFFFFFFFFFFFFF
(0.8087265491485596) can1 18FEDF00#7DA0287D7DFFFFF0
(0.8106558322906494) can1 18F00131#FFFFFF3F00FFFFFF
(0.8125884532928467) can1 18FEF131#F7FFFFC3CCFFFFF0
(0.8145215511322021) can1 18FEF031#FFFFFFFFFFFCCCFF
(0.8164477348327637) can1 18FF4831#0000FFFF00000000
(0.8183736801147461) can1 18FEF231#FFFFFFFFFFFFFFFF
(0.8202993869781494) can1 0CF00331#FFFFFFFFFFFFFFFF
(0.8224871158599854) can1 18FEE000#73490300BCE03300
(0.8244302272796631) can1 0CF00203#C00000FFF7000003
(0.8263695240020752) can1 0CF00300#C10000FFFF0F6A7D
(0.8282990455627441) can1 0CF00C03#00FB0000FFFFFFFF
(0.8302342891693115) can1 18FEF200#0000FF7FAA08E0FF
(0.8321635723114014) can1 18F00F00#FFFFFFFFFFFFFFFF
(0.8340907096862793) can1 0CF00400#0E7D7D0000000F7D
(0.8360426425933838) can1 0C010305#FFFFFFFFFFF3FFFF
(0.837977409362793) can1 0CF00203#C00000FFF7000003
(0.8399069309234619) can1 18FEDF00#7DA0287D7DFFFFF0
(0.841841459274292) can1 10FCFD00#FFFFFFFF5951FFFF
(0.8438735008239746) can1 0CFD9200#F0FFFFFFFFFFFFFF
(0.8458240032196045) can1 0CF00300#C10000FFFF0F6A7D
(0.8477745056152344) can1 0CF00203#C00000FFF7000003
(0.8497047424316406) can1 0CF00C03#00FB0000FFFFFFFF
(0.851630449295044) can1 18F00100#FFFFFFFFFFFFFFFF
(0.8535518646240234) can1 0CF00400#0E7D7D0000000F7D
(0.8554842472076416) can1 18FEF200#00000000AA08FAFF
(0.857428789138794) can1 0CF00203#C00000FFF7000003
(0.8593792915344238) can1 18FEDF00#7DA0287D7DFFFFF0
(0.8613038063049316) can1 0CF00300#C10000FFFF0F6A7D
(0.8632378578186035) can1 0CF00A00#00000000FFFFFFFF
(0.8651947975158691) can1 0CF00203#C00000FFF7000003
(0.8671236038208008) can1 18FEF000#FFFFFFE015FFFFFF
(0.8690574169158936) can1 0CF00C03#00FB0000FFFFFFFF
(0.8709921836853027) can1 18F00E00#FFFFFFFFFFFFFFFF
(0.8729236125946045) can1 18F00503#7D00007D4E204E43
(0.8749327659606934) can1 18FE4A03#035F4FFFFFF3FFFF
(0.8770685195922852) can1 18F03300#FFFFFFFFFFFFFFFF
(0.8790159225463867) can1 0CF00400#0E7D7D0000000F7D
(0.8809933662414551) can1 0CF00331#FFFFFFFFFFFFFFFF
(0.8829517364501953) can1 18FCF200#E1FFFFFFFFFFFFFF
(0.8849279880523682) can1 0CF00203#C00000FFF7000003
(0.8868603706359863) can1 18FEDF00#7DA0287D7DFFFFF0
(0.8887979984283447) can1 0CFD9200#F4FFFAFFFFFFFFFF
(0.8907277584075928) can1 18F00F00#FFFFFFFFFFFFFFFF
(0.892664909362793) can1 18FD0700#570CFCFFFFFFFFFF
(0.8946008682250977) can1 0C010305#FFFFFFFFFFF3FFFF
(0.8965342044830322) can1 0CF00203#C00000FFF7000003
(0.8984596729278564) can1 0CF00300#C10000FFFF0F6A7D
(0.9003870487213135) can1 0CF00C03#00FB0000FFFFFFFF
(0.9023234844207764) can1 18F0010B#CFFFF0FFFFDCFFFF
(0.9042606353759766) can1 18FEF100#FF0400FCFF6800CF
(0.9061882495880127) can1 0CF00400#0E7D7D0000000F7D
(0.9081203937530518) can1 10FDA300#FFFF89FFFFFFFFFF
(0.9100549221038818) can1 18FEBF0B#00007D7D7D7DFFFF
(0.9119887351989746) can1 0CF00203#C00000FFF7000003
(0.9139246940612793) can1 18F00029#F07D7DF329FFFF7D
(0.9158618450164795) can1 18FEDF00#7DA0287D7DFFFFF0
(0.9178102016448975) can1 18FCDC00#9FFFFFFF9C680400
(0.9197545051574707) can1 0CF00300#C10000FFFF0F6A7D
(0.921717643737793) can1 0CF00203#C00000FFF7000003
(0.9236950874328613) can1 1CFE9200#FF4C7DFFFFFF0000
(0.9256343841552734) can1 0CF00C03#00FB0000FFFFFFFF
(0.9276478290557861) can1 0CF00400#0E7D7D0000000F7D
(0.9295923709869385) can1 14FC9800#FF000000000000FF
(0.9315280914306641) can1 0CF00A00#00000000FFFFFFFF
(0.9334628582000732) can1 0CF00203#C00000FFF7000003
(0.9353973865509033) can1 18FD9400#0000FFFFFFFFFFFF
(0.9375560283660889) can1 18F00E00#FFFFFFFFFFFFFFFF
(0.9396991729736328) can1 18F03300#FFFFFFFFFFFFFFFF
(0.9416382312774658) can1 18FEDF00#7DA0287D7DFFFFF0
(0.9436047077178955) can1 18F00131#FFFFFF3F00FFFFFF
(0.9455323219299316) can1 18FEF131#F7FFFFC3CCFFFFF0
(0.9474582672119141) can1 18FEF031#FFFFFFFFFFFCCCFF
(0.9493842124938965) can1 18FF4831#0000FFFF00000000
(0.9513072967529297) can1 18FEF231#FFFFFFFFFFFFFFFF
(0.9532339572906494) can1 0CF00331#FFFFFFFFFFFFFFFF
(0.955162763595581) can1 18FEE000#73490300BCE03300
(0.9570980072021484) can1 0CF00203#C00000FFF7000003
(0.9590380191802979) can1 0CF00300#C10000FFFF0F6A7D
(0.9609699249267578) can1 18FEF200#00000000AA08FAFF
(0.9629030227661133) can1 18FEF200#00000000AA08FAFF
(0.9648382663726807) can1 0CF00C03#00FB0000FFFFFFFF
(0.9667823314666748) can1 18FDB400#C3265925FFFFFFFF
(0.9687294960021973) can1 18FEF200#0000FF7FAA08DFFF
(0.9707674980163574) can1 18F00F00#FFFFFFFFFFFFFFFF
(0.9726948738098145) can1 0CF00400#0E7D7D0000000F7D
(0.9746232032775879) can1 0C010305#FFFFFFFFFFF3FFFF
(0.9765987396240234) can1 0CF00203#C00000FFF7000003
(0.978593111038208) can1 18FEDF00#7DA0287D7DFFFFF0
(0.9805293083190918) can1 10FCFD00#FFFFFFFF5951FFFF
(0.9824662208557129) can1 0CF00300#C10000FFFF0F6A7D
(0.9843990802764893) can1 0CF00203#C00000FFF7000003
(0.9863324165344238) can1 0CF00C03#00FB0000FFFFFFFF
(0.9882657527923584) can1 18F00100#FFFFFFFFFFFFFFFF
(0.9902350902557373) can1 0CF00400#0E7D7D0000000F7D
(0.9922184944152832) can1 18FDB300#FFFF6624FFFFFFFF
(0.9941530227661133) can1 0CF00203#C00000FFF7000003
(0.9962358474731445) can1 18FEDF00#7DA0287D7DFFFFF0
(0.998227596282959) can1 0CF00300#C10000FFFF0F6A7D
(1.000211238861084) can1 0CF00A00#00000000FFFFFFFF
(1.0021367073059082) can1 0CF00203#C00000FFF7000003
(1.0040724277496338) can1 18FEF000#FFFFFFE015FFFFFF
(1.0060036182403564) can1 0CF00C03#00FB0000FFFFFFFF
(1.0079402923583984) can1 18F00E00#FFFFFFFFFFFFFFFF
(1.0098772048950195) can1 18F00503#7D00007D4E204E43
(1.0118043422698975) can1 18FE4A03#035F4FFFFFF3FFFF
(1.013730525970459) can1 18F03300#FFFFFFFFFFFFFFFF
(1.0156621932983398) can1 0CF00400#0E7D7D0000000F7D
(1.017594575881958) can1 0CF00331#FFFFFFFFFFFFFFFF
(1.019526720046997) can1 18FDB200#FFFFFFFF0600FFFF
(1.021456003189087) can1 0CFD9200#F4FFFAFFFFFFFFFF
(1.023385763168335) can1 18FCF200#E1FFFFFFFFFFFFFF
(1.0253190994262695) can1 0CF00203#C00000FFF7000003
(1.0272517204284668) can1 18FEDF00#7DA0287D7DFFFFF0
(1.0292272567749023) can1 18F00F00#FFFFFFFFFFFFFFFF
(1.0311541557312012) can1 0CF00300#C10000FFFF0F6A7D
(1.033092737197876) can1 0C010305#FFFFFFFFFFF3FFFF
(1.035022497177124) can1 0CF00203#C00000FFF7000003
(1.0370697975158691) can1 18F0010B#CFFFF0FFFFDCFFFF
(1.0390074253082275) can1 0CF00C03#00FB0000FFFFFFFF
(1.0409400463104248) can1 18FEF100#FF0000FCFF6800CF
(1.0428402423858643) can1 0CF00400#0E7D7D0000000F7D
(1.0447766780853271) can1 10FDA300#FFFF7FFFFFFFFFFF
(1.0467195510864258) can1 18F00029#F07D7DF329FFFF7D
(1.0486643314361572) can1 0CF00203#C00000FFF7000003
(1.0506067276000977) can1 18FEBF0B#00007D7D7D7DFFFF
(1.0525403022766113) can1 18FD8C00#FFFF0000FFFFFFFF
(1.0544755458831787) can1 18FEDF00#7DA0287D7DFFFFF0
(1.0564098358154297) can1 18FCDC00#9FFFFFFF9C680000
(1.0583715438842773) can1 0CF00300#C10000FFFF0F6A7D
(1.0603046417236328) can1 0CF00203#C00000FFF7000003
(1.0622518062591553) can1 1CFE9200#FF4C7DFFFFFF0000
(1.064225435256958) can1 0CF00C03#00FB0000FFFFFFFF
(1.0661587715148926) can1 0CF00400#0E7D7D0000000F7D
(1.0681514739990234) can1 0CF00A00#00000000FFFFFFFF
(1.0701427459716797) can1 18FD9400#0000FFFFFFFFFFFF
(1.072077751159668) can1 0CF00203#C00000FFF7000003
(1.0740115642547607) can1 18F00E00#FFFFFFFFFFFFFFFF
(1.075946569442749) can1 18FD2000#C326FFFFFFFFFFFF
(1.077887773513794) can1 18F03300#FFFFFFFFFFFFFFFF
(1.0798249244689941) can1 18FEDF00#7DA0287D7DFFFFF0
(1.081756830215454) can1 18F00131#FFFFFF3F00FFFFFF
(1.0836901664733887) can1 18FEF131#F7FFFFC3CCFFFFF0
(1.0856208801269531) can1 18FEF031#FFFFFFFFFFFCCCFF
(1.0875561237335205) can1 18FEFC31#FF33FFFFFFFF00FF
(1.0894911289215088) can1 18FEAE31#FFFF0401FFFFFFFF
(1.0914440155029297) can1 18FEF731#FFFFFFFFED00FFFF
(1.093393325805664) can1 18FEE000#73490300BCE03300
(1.0953290462493896) can1 0CF00203#C00000FFF7000003
(1.0972683429718018) can1 0CF00300#C10000FFFF0F6A7D
(1.0992860794067383) can1 0CF00C03#00FB0000FFFFFFFF
(1.1012494564056396) can1 18FF4831#0000FFFF00000000
(1.103234052658081) can1 18FD8331#F8FFFFFFFFFFFFFF
(1.1052296161651611) can1 18FEF831#FFFFFFFFFFFFFFFF
(1.10732102394104) can1 18FEF231#FFFFFFFFFFFFFFFF
(1.1092607975006104) can1 18FEF200#00000000AB08DFFF
(1.1112680435180664) can1 18F00F00#FFFFFFFFFFFFFFFF
(1.1132118701934814) can1 18FEFA31#FF0902FFFFFFFFFF
(1.1152713298797607) can1 0CF00400#0E7D7D0000000F7D
(1.1172294616699219) can1 18FEC131#FFFFFFFAFFFFFFFF
(1.1192576885223389) can1 0CF00331#FFFFFFFFFFFFFFFF
(1.121222972869873) can1 0C010305#FFFFFFFFFFF3FFFF
(1.1232280731201172) can1 0CF00203#C00000FFF7000003
(1.125309705734253) can1 18FEDF00#7DA0287D7DFFFFF0
(1.1272478103637695) can1 10FCFD00#FFFFFFFF5951FFFF
(1.1292724609375) can1 0CFD9200#F4FFFAFFFFFFFFFF
(1.1312358379364014) can1 18FD3E00#4C24FF6924FFFFFF
(1.1332149505615234) can1 0CF00300#C10000FFFF0F6A7D
(1.135685682296753) can1 0CF00203#C00000FFF7000003
(1.1376311779022217) can1 0CF00C03#00FB0000FFFFFFFF
(1.1395699977874756) can1 18F00100#FFFFFFFFFFFFFFFF
(1.1415040493011475) can1 0CF00400#0E7D7D0000000F7D
(1.1435487270355225) can1 0CF00203#C00000FFF7000003
(1.1454827785491943) can1 18FEDF00#7DA0287D7DFFFFF0
(1.1474182605743408) can1 18FD4000#FF3F00FFFFFFFFFF
(1.1493504047393799) can1 0CF00300#C10000FFFF0F6A7D
(1.151378870010376) can1 0CF00203#C00000FFF7000003
(1.1533267498016357) can1 18FEF200#00000000AA08FAFF
(1.155271053314209) can1 0CF00A00#00000000FFFFFFFF
(1.1572465896606445) can1 18FEF200#00000000AA08FAFF
(1.1591477394104004) can1 0CFD9200#F4FFFAFFFFFFFFFF
(1.1612403392791748) can1 0CF00C03#00FB0000FFFFFFFF
(1.1635358333587646) can1 18FEF000#FFFFFFE015FFFFFF
(1.1654763221740723) can1 18F00503#7D00007D4E204E43
(1.1675198078155518) can1 18F00E00#FFFFFFFFFFFFFFFF
(1.1697213649749756) can1 0CFD9200#F4FFFAFFFFFFFFFF
(1.1716952323913574) can1 18FE4A03#035F4FFFFFF3FFFF
(1.1736400127410889) can1 18F03300#FFFFFFFFFFFFFFFF
(1.175581455230713) can1 18FD9503#CCFFFFBBFFFFFFFF
(1.177506685256958) can1 0CF00400#0E7D7D0000000F7D
(1.1794471740722656) can1 18FEF803#FFFFFFFF1124FFFF
(1.1813843250274658) can1 0CF00331#FFFFFFFFFFFFFFFF
(1.183316946029663) can1 18FCF200#E1FFFFFFFFFFFFFF
(1.186004400253296) can1 0CF00203#C00000FFF7000003
(1.1879448890686035) can1 18FEDF00#7DA0287D7DFFFFF0
(1.1898813247680664) can1 18F00F00#FFFFFFFFFFFFFFFF
(1.1918187141418457) can1 0CF00300#C10000FFFF0F6A7D
(1.1937544345855713) can1 0CFD9200#F4FFFAFFFFFFFFFF
(1.1963262557983398) can1 0C010305#FFFFFFFFFFF3FFFF
(1.198286533355713) can1 0CF00203#C00000FFF7000003
(1.2002408504486084) can1 18F0010B#CFFFF0FFFFDCFFFF
(1.2022380828857422) can1 0CF00C03#00FB0000FFFFFFFF
(1.2042310237884521) can1 18FEF100#FF0000FCFF6800CF
(1.206627368927002) can1 18FCC500#4C24FFFFFFFFFFFF
(1.2089545726776123) can1 0CFD9200#F0FFFFFFFFFFFFFF
(1.210883378982544) can1 0CFD9200#F4FFFAFFFFFFFFFF
(1.2128310203552246) can1 18FEF200#00000000AA08FAFF
(1.2148261070251465) can1 0CF00400#0E7D7D0000000F7D
(1.2167644500732422) can1 10FDA300#FFFF77FFFFFFFFFF
(1.2187080383300781) can1 18F00029#F07D7DF329FFFF7D
(1.2206459045410156) can1 0CF00203#C00000FFF7000003
(1.2225782871246338) can1 18FEBF0B#00007D7D7D7DFFFF
(1.2245087623596191) can1 18FECA03#00FF00000000FFFF
(1.2264509201049805) can1 18FEDF00#7DA0287D7DFFFFF0
(1.228389024734497) can1 18FEF200#00000000AA08FAFF
(1.2303223609924316) can1 18FCDC00#9FFFFFFF9C680000
(1.2322559356689453) can1 0CF00300#C10000FFFF0F6A7D
(1.2346513271331787) can1 0CF00203#C00000FFF7000003
(1.236637830734253) can1 1CFE9200#FF4C7DFFFFFF0000
(1.238577127456665) can1 0CF00C03#00FB0000FFFFFFFF
(1.240513563156128) can1 0CF00400#0E7D7D0000000F7D
(1.2424490451812744) can1 0CFD9200#F4FFFAFFFFFFFFFF
(1.2443854808807373) can1 0CF00A00#00000000FFFFFFFF
(1.246326208114624) can1 18FD9400#0000FFFFFFFFFFFF
(1.2493431568145752) can1 0CF00203#C00000FFF7000003
(1.2518973350524902) can1 18FEEF00#FFFFFF00FF7CFFFA
(1.2551558017730713) can1 18F00E00#FFFFFFFFFFFFFFFF
(1.2572429180145264) can1 18F03300#FFFFFFFFFFFFFFFF
(1.2592592239379883) can1 18FEDF00#7DA0287D7DFFFFF0
(1.261214256286621) can1 18F00131#FFFFFF3F00FFFFFF
(1.2631635665893555) can1 18FEF131#F7FFFFC3CCFFFFF0
(1.2651088237762451) can1 18FEF031#FFFFFFFFFFFCCCFF
(1.2670505046844482) can1 18FF4831#0000FFFF00000000
(1.2689886093139648) can1 18FEF231#FFFFFFFFFFFFFFFF
(1.2709288597106934) can1 0CF00331#FFFFFFFFFFFFFFFF
(1.27286696434021) can1 0CFD9200#F4FFFAFFFFFFFFFF
(1.2748000621795654) can1 18FEE000#73490300BCE03300
(1.2767374515533447) can1 0CF00203#C00000FFF7000003
(1.2786979675292969) can1 0CF00300#C10000FFFF0F6A7D
(1.2806406021118164) can1 0CF00C03#00FB0000FFFFFFFF
(1.2825782299041748) can1 18FEF200#00000000AA08DFFF
(1.2845120429992676) can1 18F00F00#FFFFFFFFFFFFFFFF
(1.2864482402801514) can1 0CF00400#0E7D7D0000000F7D
(1.2883892059326172) can1 18FEDB00#FFFF7400FFFFFFFF
(1.290325403213501) can1 0C010305#FFFFFFFFFFF3FFFF
(1.2922582626342773) can1 0CF00203#C00000FFF7000003
(1.2941977977752686) can1 18FEDF00#7DA0287D7DFFFFF0
(1.2961328029632568) can1 10FCFD00#FFFFFFFF5951FFFF
(1.2980680465698242) can1 0CF00300#C10000FFFF0F6A7D
(1.3000001907348633) can1 0CF00203#C00000FFF7000003
(1.3019273281097412) can1 0CF00C03#00FB0000FFFFFFFF
(1.3038649559020996) can1 0CFD9200#F4FFFAFFFFFFFFFF
(1.305802822113037) can1 18F00100#FFFFFFFFFFFFFFFF
(1.3077378273010254) can1 0CF00400#0E7D7D0000000F7D
(1.3096733093261719) can1 18FEF600#FF0039FFFFFFFFFF
(1.3116073608398438) can1 0CF00203#C00000FFF7000003
(1.313544750213623) can1 18FEDF00#7DA0287D7DFFFFF0
(1.3154799938201904) can1 0CF00300#C10000FFFF0F6A7D
(1.317413568496704) can1 0CF00A00#00000000FFFFFFFF
(1.3193612098693848) can1 0CF00203#C00000FFF7000003
(1.321293830871582) can1 18FEF000#FFFFFFE015FFFFFF
(1.3232300281524658) can1 0CF00C03#00FB0000FFFFFFFF
(1.3251714706420898) can1 18F00E00#FFFFFFFFFFFFFFFF
(1.3271081447601318) can1 18F00503#7D00007D4E204E43
(1.3290700912475586) can1 18FE4A03#035F4FFFFFF3FFFF
(1.331002950668335) can1 18F03300#FFFFFFFFFFFFFFFF
(1.3329508304595947) can1 0CF00400#0E7D7D0000000F7D
(1.3348841667175293) can1 0CF00331#FFFFFFFFFFFFFFFF
(1.336824893951416) can1 18FEF200#00000000AA08FAFF
(1.338761329650879) can1 18FCF200#E1FFFFFFFFFFFFFF
(1.340688943862915) can1 0CF00203#C00000FFF7000003
(1.3426175117492676) can1 18FEDF00#7DA0287D7DFFFFF0
(1.3454575538635254) can1 18FDC600#FC04FFFFFFFFFFFF
(1.3473985195159912) can1 18F00F00#FFFFFFFFFFFFFFFF
(1.3493351936340332) can1 18FEF200#00000000AA08FAFF
(1.3512861728668213) can1 0CF00300#C10000FFFF0F6A7D
(1.3532509803771973) can1 0C010305#FFFFFFFFFFF3FFFF
(1.3552372455596924) can1 0CF00203#C00000FFF7000003
(1.3571724891662598) can1 18F0010B#CFFFF0FFFFDCFFFF
(1.3591065406799316) can1 0CF00C03#00FB0000FFFFFFFF
(1.3610410690307617) can1 18FEF100#FF0000FCFF6800CF
(1.3629753589630127) can1 0CF00400#0E7D7D0000000F7D
(1.3649179935455322) can1 10FDA300#FFFF6CFFFFFFFFFF
(1.3668460845947266) can1 18F00029#F07D7DF329FFFF7D
(1.3687806129455566) can1 0CF00203#C00000FFF7000003
(1.3707163333892822) can1 18FEBF0B#00007D7D7D7DFFFF
(1.3726513385772705) can1 18FEDF00#7DA0287D7DFFFFF0
(1.3745851516723633) can1 18FCDC00#9FFFFFFF9C680000
(1.3765225410461426) can1 0CF00300#C10000FFFF0F6A7D
(1.3784582614898682) can1 0CF00203#C00000FFF7000003
(1.3803987503051758) can1 18FECA0B#04FF00000000FFFF
(1.3823390007019043) can1 18FEF200#00000000AA08FAFF
(1.3842761516571045) can1 0CF00C03#00FB0000FFFFFFFF
(1.3862395286560059) can1 1CFE9200#FF507DFFFFFF0000
(1.3881845474243164) can1 0CF00400#0E7D7D0000000F7D
(1.3901216983795166) can1 0CF00A00#00000000FFFFFFFF
(1.3920552730560303) can1 18FD9400#0000FFFFFFFFFFFF
(1.394040584564209) can1 0CF00203#C00000FFF7000003
(1.3959858417510986) can1 18F00E00#FFFFFFFFFFFFFFFF
(1.3979246616363525) can1 18F03300#FFFFFFFFFFFFFFFF
(1.3998603820800781) can1 18FEDF00#7DA0287D7DFFFFF0
(1.401796579360962) can1 18FEF200#00000000AA08FAFF
(1.4038095474243164) can1 18F00131#FFFFFF3F00FFFFFF
(1.4057397842407227) can1 18FEF131#F7FFFFC3CCFFFFF0
(1.4076769351959229) can1 18FEF200#00000000AA08FAFF
(1.4096133708953857) can1 18FEF031#FFFFFFFFFFFCCCFF
(1.4115512371063232) can1 18FF4831#0000FFFF00000000
(1.4134845733642578) can1 18FEF231#FFFFFFFFFFFFFFFF
(1.4157142639160156) can1 0CF00331#FFFFFFFFFFFFFFFF
(1.4176530838012695) can1 18FEF700#FFFFFFFFED00FFFF
(1.419588327407837) can1 0CF00203#C00000FFF7000003
(1.4215190410614014) can1 18FEE000#73490300BCE03300
(1.4235074520111084) can1 0CF00C03#00FB0000FFFFFFFF
(1.425445795059204) can1 0CFD9200#F4FFFAFFFFFFFFFF
(1.4273831844329834) can1 0CF00300#C10000FFFF0F6A7D
(1.4293184280395508) can1 18FEF200#00000000AA08DEFF
(1.4312539100646973) can1 18F00F00#FFFFFFFFFFFFFFFF
(1.4333245754241943) can1 0CF00400#0E7D7D0000000F7D
(1.4352657794952393) can1 0C010305#FFFFFFFFFFF3FFFF
(1.4372344017028809) can1 0CF00203#C00000FFF7000003
(1.4393901824951172) can1 18FEDF00#7DA0287D7DFFFFF0
(1.4413268566131592) can1 10FCFD00#FFFFFFFF5951FFFF
(1.4432616233825684) can1 18FEC100#5FF210054F2C5200
(1.445251226425171) can1 0CF00300#C10000FFFF0F6A7D
(1.447249412536621) can1 0CF00203#C00000FFF7000003
(1.4493849277496338) can1 0CF00C03#00FB0000FFFFFFFF
(1.4513227939605713) can1 18F00100#FFFFFFFFFFFFFFFF
(1.453324794769287) can1 0CF00400#0E7D7D0000000F7D
(1.455268383026123) can1 0CF00203#C00000FFF7000003
(1.457289695739746) can1 18FEDF00#7DA0287D7DFFFFF0
(1.4593141078948975) can1 0CF00300#C10000FFFF0F6A7D
(1.4612464904785156) can1 0CFD9200#F4FFFAFFFFFFFFFF
(1.4632463455200195) can1 0CF00A00#00000000FFFFFFFF
(1.4652459621429443) can1 0CF00203#C00000FFF7000003
(1.4672198295593262) can1 18FEF000#FFFFFFE015FFFFFF
(1.4692366123199463) can1 0CF00C03#00FB0000FFFFFFFF
(1.471179723739624) can1 18F00E00#FFFFFFFFFFFFFFFF
(1.4733164310455322) can1 18F00503#7D00007D4E204E43
(1.4752886295318604) can1 18FE4A03#035F4FFFFFF3FFFF
(1.4772264957427979) can1 18FE5600#9735FFFF1F1F00FF
(1.4791526794433594) can1 18F03300#FFFFFFFFFFFFFFFF
(1.481302261352539) can1 0CF00400#0E7D7D0000000F7D
(1.4832382202148438) can1 0CF00331#FFFFFFFFFFFFFFFF
(1.4851725101470947) can1 0CFD9200#F4FFFAFFFFFFFFFF
(1.4871587753295898) can1 18FCF200#DEFFFFFFFFFFFFFF
(1.489095687866211) can1 0CF00203#C00000FFF7000003
(1.491032600402832) can1 18FEDF00#7DA0287D7DFFFFF0
(1.4929707050323486) can1 18F00F00#FFFFFFFFFFFFFFFF
(1.4949140548706055) can1 0CF00300#C10000FFFF0F6A7D
(1.496856451034546) can1 0C010305#FFFFFFFFFFF3FFFF
(1.498793601989746) can1 0CF00203#C00000FFF7000003
(1.5007286071777344) can1 18F0010B#CFFFF0FFFFDCFFFF
(1.502664566040039) can1 0CFD9200#F4FFFAFFFFFFFFFF
(1.5046024322509766) can1 0CF00C03#00FB0000FFFFFFFF
(1.506540060043335) can1 18FEF100#FF0000FCFF6800CF
(1.508484125137329) can1 18FD7B00#00FFE67700008237
(1.510416030883789) can1 0CF00400#0E7D7D0000000F7D
(1.51235032081604) can1 10FDA300#FFFF62FFFFFFFFFF
(1.516453504562378) can1 18F00029#F07D7DF329FFFF7D
(1.5183982849121094) can1 0CFD9200#F4FFFAFFFFFFFFFF
(1.5203320980072021) can1 0CF00203#C00000FFF7000003
(1.5222663879394531) can1 0CFD9200#F4FFFAFFFFFFFFFF
(1.5242218971252441) can1 18FEBF0B#00007D7D7D7DFFFF
(1.52628493309021) can1 18FEDF00#7DA0287D7DFFFFF0
(1.5282704830169678) can1 18FCDC00#9FFFFFFF9C680000
(1.5302233695983887) can1 18FEF200#00000000AA08FAFF
(1.5321614742279053) can1 0CF00300#C10000FFFF0F6A7D
(1.534097671508789) can1 0CF00203#C00000FFF7000003
(1.5360286235809326) can1 1CFE9200#FF4C7DFFFFFF0000
(1.537968635559082) can1 0CF00C03#00FB0000FFFFFFFF
(1.5399062633514404) can1 0CF00400#0E7D7D0000000F7D
(1.5418426990509033) can1 0CF00A00#00000000FFFFFFFF
(1.5437753200531006) can1 18FD9400#0000FFFFFFFFFFFF
(1.5457062721252441) can1 0CF00203#C00000FFF7000003
(1.5476431846618652) can1 18FEDD00#FF0000FFFFFFFFFF
(1.549715518951416) can1 18F00E00#FFFFFFFFFFFFFFFF
(1.5517051219940186) can1 18F03300#FFFFFFFFFFFFFFFF
(1.5536434650421143) can1 18FEDF00#7DA0287D7DFFFFF0
(1.5555877685546875) can1 18F00131#FFFFFF3F00FFFFFF
(1.5575249195098877) can1 18FEF131#F7FFFFC3CCFFFFF0
(1.5595476627349854) can1 18FEF031#FFFFFFFFFFFCCCFF
(1.5614826679229736) can1 18FF4831#0000FFFF00000000
(1.563474178314209) can1 18FEF231#FFFFFFFFFFFFFFFF
(1.5654120445251465) can1 0CF00331#FFFFFFFFFFFFFFFF
(1.5673444271087646) can1 18FEE000#73490300BCE03300
(1.5692784786224365) can1 0CF00203#C00000FFF7000003
(1.5712559223175049) can1 0CF00300#D10000FFFF0F6A7D
(1.5732300281524658) can1 0CF00C03#00FB0000FFFFFFFF
(1.5751643180847168) can1 18FEF200#00000000AA08E0FF
(1.577099323272705) can1 18F00F00#FFFFFFFFFFFFFFFF
(1.5790445804595947) can1 0CF00400#0E7D7D0000000F7D
(1.580979824066162) can1 18FEE400#FF3FFCFD007FFFFF
(1.582921028137207) can1 0C010305#FFFFFFFFFFF3FFFF
(1.5848567485809326) can1 0CF00203#C00000FFF7000003
(1.586791753768921) can1 18FEDF00#7DA0287D7DFFFFF0
(1.5887300968170166) can1 0CFD9200#F4FFFAFFFFFFFFFF
(1.5906779766082764) can1 10FCFD00#FFFFFFFF5951FFFF
(1.5926129817962646) can1 0CFD9200#F0FFFFFFFFFFFFFF
(1.5945661067962646) can1 0CF00300#D10000FFFF0F6A7D
(1.5965025424957275) can1 0CF00203#C00000FFF7000003
(1.598440170288086) can1 0CF00C03#00FB0000FFFFFFFF
(1.60044264793396) can1 18F00100#FFFFFFFFFFFFFFFF
(1.602372407913208) can1 0CF00400#0E7D7D0000000F7D
(1.6043295860290527) can1 0CF00203#C00000FFF7000003
(1.6062653064727783) can1 18FEDF00#7DA0287D7DFFFFF0
(1.6084094047546387) can1 0CF00300#D10000FFFF0F6A7D
(1.6103448867797852) can1 0CF00A00#00000000FFFFFFFF
(1.6122803688049316) can1 0CF00203#C00000FFF7000003
(1.6142234802246094) can1 18FEF000#FFFFFFE015FFFFFF
(1.6161603927612305) can1 0CF00C03#00FB0000FFFFFFFF
(1.6180956363677979) can1 18FEBD00#00F0FFFFFFFFFFFF
(1.6200296878814697) can1 18FEF200#00000000AA08FAFF
(1.621964931488037) can1 18F00503#7D00007D4E204E43
(1.6239004135131836) can1 18F00E00#FFFFFFFFFFFFFFFF
(1.6259162425994873) can1 0CFD9200#F4FFFAFFFFFFFFFF
(1.6278574466705322) can1 18FE4A03#035F4FFFFFF3FFFF
(1.6297948360443115) can1 18F03300#FFFFFFFFFFFFFFFF
(1.6317298412322998) can1 0CF00400#0E7D7D0000000F7D
(1.6336619853973389) can1 0CF00331#FFFFFFFFFFFFFFFF
(1.6355934143066406) can1 18FEF200#00000000AA08FAFF
(1.6375300884246826) can1 18FECA31#00FF00000000FFFF
(1.6395010948181152) can1 0CFD9200#F4FFFAFFFFFFFFFF
(1.64143705368042) can1 18FCF200#E6FFFFFFFFFFFFFF
(1.6438877582550049) can1 18FEF200#00000000AA08FAFF
(1.6458313465118408) can1 0CF00203#C00000FFF7000003
(1.6477692127227783) can1 0CFD9200#F4FFFAFFFFFFFFFF
(1.6497063636779785) can1 18FEDF00#7DA0287D7DFFFFF0
(1.6516399383544922) can1 18E0FF00#00FFFFFFFFFFFFFF
(1.6535773277282715) can1 18F00F00#FFFFFFFFFFFFFFFF
(1.6555149555206299) can1 0CF00300#D10000FFFF0F6A7D
(1.6574528217315674) can1 0C010305#FFFFFFFFFFF3FFFF
(1.659386396408081) can1 0CF00203#C00000FFF7000003
(1.661323070526123) can1 18F0010B#CFFFF0FFFFDCFFFF
(1.6632640361785889) can1 0CF00C03#00FB0000FFFFFFFF
(1.6652014255523682) can1 18FEF100#FF0000FCFF6800CF
(1.667170524597168) can1 18FEEE00#37FFFFFFFFFFFFFF
(1.6691036224365234) can1 0CF00400#0E7D7D0000000F7D
(1.671036958694458) can1 10FDA300#FFFF5AFFFFFFFFFF
(1.672971487045288) can1 18F00029#F07D7DF329FFFF3C
(1.6749074459075928) can1 18FEF200#00000000AA08FAFF
(1.6769130229949951) can1 0CF00203#C00000FFF7000003
(1.6788549423217773) can1 18FEBF0B#00007D7D7D7DFFFF
(1.680936574935913) can1 18FEDF00#7DA0287D7DFFFFF0
(1.6828866004943848) can1 18FCDC00#9FFFFFFF9C680000
(1.6848313808441162) can1 0CF00300#D10000FFFF0F6A7D
(1.6867690086364746) can1 0CF00203#C00000FFF7000003
(1.688709020614624) can1 1CFE9200#FF647DFFFFFF0000
(1.690645456314087) can1 0CF00C03#00FB0000FFFFFFFF
(1.6925792694091797) can1 18FEF500#AAFFFF4E25FFFFFF
(1.6945123672485352) can1 0CF00400#0E7D7D0000000F7D
(1.6964504718780518) can1 18FEF200#00000000AA08FAFF
(1.6984772682189941) can1 14FC9800#FF000000000000FF
(1.7004122734069824) can1 0CFD9200#F4FFFAFFFFFFFFFF
(1.7023468017578125) can1 0CF00A00#00000000FFFFFFFF
(1.7050132751464844) can1 0CF00203#C00000FFF7000003
(1.7069761753082275) can1 18FD9400#0000FFFFFFFFFFFF
(1.7089147567749023) can1 18F00E00#FFFFFFFFFFFFFFFF
(1.7108592987060547) can1 18F03300#FFFFFFFFFFFFFFFF
(1.712796926498413) can1 18FEDF00#7DA0287D7DFFFFF0
(1.7147321701049805) can1 18F00131#FFFFFF3F00FFFFFF
(1.7166666984558105) can1 18FEF131#F7FFFFC3CCFFFFF0
(1.7186007499694824) can1 18FEF031#FFFFFFFFFFFCCCFF
(1.7205424308776855) can1 18F11031#0000FFFFFFFFFFFF
(1.722480297088623) can1 18FF4831#0000FFFF00000000
(1.7244181632995605) can1 18FEF231#FFFFFFFFFFFFFFFF
(1.7263553142547607) can1 18FEE000#73490300BCE03300
(1.7282910346984863) can1 0CF00203#C00000FFF7000003
(1.730226755142212) can1 0CF00300#D10000FFFF0F6A7D
(1.7321619987487793) can1 18FEF200#00000000AA08FAFF
(1.734097957611084) can1 18FEF200#00000000AA08FAFF
(1.7360522747039795) can1 0CF00331#FFFFFFFFFFFFFFFF
(1.737997055053711) can1 0CF00C03#00FB0000FFFFFFFF
(1.7399399280548096) can1 18FEA400#FFFF1C24FFFF3B24
(1.7418780326843262) can1 18FDB400#C9265925FFFFFFFF
(1.7438199520111084) can1 18FEF200#00000000AA08EFFF
(1.745762586593628) can1 18F00F00#FFFFFFFFFFFFFFFF
(1.7477004528045654) can1 0CF00400#0E7D7D0000000F7D
(1.749640703201294) can1 0C010305#FFFFFFFFFFF3FFFF
(1.751577377319336) can1 0CF00203#C00000FFF7000003
(1.7535145282745361) can1 18FEDF00#7DA0287D7DFFFFF0
(1.7554659843444824) can1 10FCFD00#FFFFFFFF5951FFFF
(1.7574000358581543) can1 0CF00300#D10000FFFF0F6A7D
(1.7593464851379395) can1 0CF00203#C00000FFF7000003
(1.7612853050231934) can1 0CF00C03#00FB0000FFFFFFFF
(1.7632217407226562) can1 18FD7C00#F8830100C31F03FF
(1.7651557922363281) can1 18F00100#FFFFFFFFFFFFFFFF
(1.7670929431915283) can1 0CF00400#0E7D7D0000000F7D
(1.7690236568450928) can1 18FDB300#FFFF6324FFFFFFFF
(1.7709574699401855) can1 18FEF200#00000000AA08FAFF
(1.7728934288024902) can1 18FEF200#00000000AA08FAFF
(1.7748312950134277) can1 0CF00203#C00000FFF7000003
(1.7767813205718994) can1 18FEDF00#7DA0287D7DFFFFF0
(1.7787096500396729) can1 0CF00300#D10000FFFF0F6A7D
(1.780634880065918) can1 0CF00A00#00000000FFFFFFFF
(1.7826285362243652) can1 0CF00203#C00000FFF7000003
(1.7845547199249268) can1 18FEF000#FFFFFFE015FFFFFF
(1.7864625453948975) can1 0CF00C03#00FB0000FFFFFFFF
(1.7883987426757812) can1 18F00E00#FFFFFFFFFFFFFFFF
(1.7903239727020264) can1 18F00503#7D00007D4E204E43
(1.792257308959961) can1 18FE4A03#035F4FFFFFF3FFFF
(1.7950658798217773) can1 18F03300#FFFFFFFFFFFFFFFF
(1.797003984451294) can1 18FE9A00#7624FFFFFFFFFFFF
(1.7989399433135986) can1 0CF00400#0E7D7D0000000F7D
(1.800877332687378) can1 0CF00331#FFFFFFFFFFFFFFFF
(1.8028090000152588) can1 18FDB200#FFFFFFFF0600FFFF
(1.8047480583190918) can1 18FCF200#F1FFFFFFFFFFFFFF
(1.80668306350708) can1 0CF00203#C00000FFF7000003
(1.8087072372436523) can1 18FEDF00#7DA0287D7DFFFFF0
(1.810647964477539) can1 18F00F00#FFFFFFFFFFFFFFFF
(1.8125810623168945) can1 0CF00300#D10000FFFF0F6A7D
(1.8145084381103516) can1 0C010305#FFFFFFFFFFF3FFFF
(1.816441297531128) can1 0CF00203#C00000FFF7000003
(1.8183724880218506) can1 18F0010B#CFFFF0FFFFDCFFFF
(1.8202705383300781) can1 0CF00C03#00FB0000FFFFFFFF
(1.822213888168335) can1 18FEF100#FF0000FCFF6800CF
(1.8241500854492188) can1 0CF00400#0E7D7D0000000F7D
(1.826082706451416) can1 10FDA300#FFFF4FFFFFFFFFFF
(1.8280224800109863) can1 18FEF200#00000000AA08FAFF
(1.8299572467803955) can1 18FE9900#FFFFFFFFFFFFFFFF
(1.8319032192230225) can1 0CF00203#C00000FFF7000003
(1.8338377475738525) can1 18F00029#F07D7DF329FFFF3C
(1.8357713222503662) can1 18FEBF0B#00007D7D7D7DFFFF
(1.8377034664154053) can1 18FD8C00#FFFF0000FFFFFFFF
(1.8396317958831787) can1 18FEDF00#7DA0287D7DFFFFF0
(1.8415710926055908) can1 18FCDC00#9FFFFFFF9C680000
(1.8435165882110596) can1 0CF00300#D10000FFFF0F6A7D
(1.8454549312591553) can1 0CF00203#C00000FFF7000003
(1.847393274307251) can1 0CFD9200#F4FFFAFFFFFFFFFF
(1.8493475914001465) can1 1CFE9200#FF607DFFFFFF0000
(1.8512861728668213) can1 0CF00C03#00FB0000FFFFFFFF
(1.8532311916351318) can1 0CF00400#0E7D7D0000000F7D
(1.855175495147705) can1 0CF00A00#00000000FFFFFFFF
(1.857116937637329) can1 18FD9400#0000FFFFFFFFFFFF
(1.8590586185455322) can1 0CF00203#C00000FFF7000003
(1.8610727787017822) can1 18FEFC00#FFFFFFFFFFFFFFFF
(1.8630092144012451) can1 18F00E00#FFFFFFFFFFFFFFFF
(1.864943265914917) can1 18FD2000#C926FFFFFFFFFFFF
(1.8668744564056396) can1 18F03300#FFFFFFFFFFFFFFFF
(1.8688209056854248) can1 18FEDF00#7DA0287D7DFFFFF0
(1.8707566261291504) can1 18F00131#FFFFFF3F00FFFFFF
(1.8726940155029297) can1 18FEF131#F7FFFFC3CCFFFFF0
(1.874631404876709) can1 18FEF031#FFFFFFFFFFFCCCFF
(1.87656569480896) can1 18FF4831#0000FFFF00000000
(1.8785009384155273) can1 18FEF231#FFFFFFFFFFFFFFFF
(1.8804349899291992) can1 0CF00331#FFFFFFFFFFFFFFFF
(1.8823680877685547) can1 18FEE000#73490300BCE03300
(1.8843021392822266) can1 0CF00203#C00000FFF7000003
(1.8862411975860596) can1 18FEF200#00000000AA08FAFF
(1.888195276260376) can1 0CF00300#D10000FFFF0F6A7D
(1.890131950378418) can1 0CF00C03#00FB0000FFFFFFFF
(1.8920695781707764) can1 18FEF200#00000000AA08FAFF
(1.8940088748931885) can1 18FEF200#00000000AA08FAFF
(1.895958423614502) can1 18F00F00#FFFFFFFFFFFFFFFF
(1.8979060649871826) can1 0CF00400#0E7D7D0000000F7D
(1.8998570442199707) can1 0C010305#FFFFFFFFFFF3FFFF
(1.9018104076385498) can1 0CF00203#C00000FFF7000003
(1.9037611484527588) can1 18FEDF00#7DA0287D7DFFFFF0
(1.9057090282440186) can1 10FCFD00#FFFFFFFF5951FFFF
(1.9076521396636963) can1 0CFD9200#F4FFFAFFFFFFFFFF
(1.9095971584320068) can1 18FD3E00#5024FF6924FFFFFF
(1.9115495681762695) can1 0CF00300#D10000FFFF0F6A7D
(1.9134972095489502) can1 0CF00203#C00000FFF7000003
(1.9154634475708008) can1 0CF00C03#00FB0000FFFFFFFF
(1.9174163341522217) can1 18F00100#FFFFFFFFFFFFFFFF
(1.9193665981292725) can1 0CF00400#0E7D7D0000000F7D
(1.9213180541992188) can1 0CF00203#C00000FFF7000003
(1.9232978820800781) can1 0CFD9200#F4FFFAFFFFFFFFFF
(1.9252424240112305) can1 0CFD9200#F4FFFAFFFFFFFFFF
(1.927278757095337) can1 18FEDF00#7DA0287D7DFFFFF0
(1.9292230606079102) can1 18FD4000#FF3F00FFFFFFFFFF
(1.9311695098876953) can1 0CF00300#D10000FFFF0F6A7D
(1.9332513809204102) can1 0CF00203#C00000FFF7000003
(1.9352006912231445) can1 0CF00A00#00000000FFFFFFFF
(1.9371442794799805) can1 0CF00C03#00FB0000FFFFFFFF
(1.9392380714416504) can1 18FEF000#FFFFFFE015FFFFFF
(1.941178560256958) can1 18F00503#7D00007D4E204E43
(1.9431796073913574) can1 18F00E00#FFFFFFFFFFFFFFFF
(1.9451305866241455) can1 18FE4A03#035F4FFFFFF3FFFF
(1.947070598602295) can1 18FECA00#03FF00000000FFFF
(1.9490556716918945) can1 18F03300#FFFFFFFFFFFFFFFF
(1.9509928226470947) can1 0CF00400#0E7D7D0000000F7D
(1.9529290199279785) can1 0CF00331#FFFFFFFFFFFFFFFF
(1.9549503326416016) can1 18FCF200#F6FFFFFFFFFFFFFF
(1.956892490386963) can1 0CF00203#C00000FFF7000003
(1.9588329792022705) can1 18FEDF00#7DA0287D7DFFFFF0
(1.9608707427978516) can1 18F00F00#FFFFFFFFFFFFFFFF
(1.96280837059021) can1 0CF00300#D10000FFFF0F6A7D
(1.964740514755249) can1 0C010305#FFFFFFFFFFF3FFFF
(1.9666805267333984) can1 0CF00203#C00000FFF7000003
(1.9686148166656494) can1 18F0010B#CFFFF0FFFFDCFFFF
(1.970550537109375) can1 0CF00C03#00FB0000FFFFFFFF
(1.9725112915039062) can1 18FEF100#FF0000FCFF6800CF
(1.9744515419006348) can1 0CFD9200#F4FFFAFFFFFFFFFF
(1.9763875007629395) can1 1CECFF29#20130003FFE1FE00
(1.9783384799957275) can1 18FCC500#5024FFFFFFFFFFFF
(1.9802706241607666) can1 0CFD9200#F0FFFFFFFFFFFFFF
(1.9822044372558594) can1 0CF00400#0E7D7D0000000F7D
(1.9841396808624268) can1 10FDA300#FFFF46FFFFFFFFFF
(1.9860801696777344) can1 18F00029#F07D7DF329FFFF3C
(1.9880139827728271) can1 0CF00203#C00000FFF7000003
(1.9899442195892334) can1 18FEBF0B#00007D7D7D7DFFFF
(1.991879940032959) can1 18FEDF00#7DA0287D7DFFFFF0
(1.9938116073608398) can1 18FCDC00#9FFFFFFF9C680000
(1.9957501888275146) can1 0CF00300#D10000FFFF0F6A7D
(1.9976882934570312) can1 0CF00203#C00000FFF7000003
(1.9996161460876465) can1 1CFE9200#FF647DFFFFFF0000
(2.001549482345581) can1 0CF00C03#00FB0000FFFFFFFF
(2.0035946369171143) can1 18FEFF00#FCC0FFFFFFFFFFFF
(2.0055387020111084) can1 0CF00400#0E7D7D0000000F7D
(2.0074760913848877) can1 0CF00A00#00000000FFFFFFFF
(2.0094642639160156) can1 18FD9400#0000FFFFFFFFFFFF
(2.0114057064056396) can1 0CF00203#C00000FFF7000003
(2.01334285736084) can1 18FEEF00#FFFFFF00FF7CFFFA
(2.015280246734619) can1 0CFD9200#F4FFFAFFFFFFFFFF
(2.017214298248291) can1 18F00E00#FFFFFFFFFFFFFFFF
(2.019186496734619) can1 18F03300#FFFFFFFFFFFFFFFF
(2.0211174488067627) can1 0CFD9200#F4FFFAFFFFFFFFFF
(2.0230486392974854) can1 18FEDF00#7DA0287D7DFFFFF0
(2.024974822998047) can1 18F00131#FFFFFF3F00FFFFFF
(2.0269083976745605) can1 18FEF131#F7FFFFC3CCFFFFF0
(2.028844118118286) can1 18FEF031#FFFFFFFFFFFCCCFF
(2.03078031539917) can1 18FEF200#00000000AA08FAFF
(2.032714366912842) can1 18FF4831#0000FFFF00000000
(2.0346381664276123) can1 18FEF231#FFFFFFFFFFFFFFFF
(2.0365686416625977) can1 0CF00331#FFFFFFFFFFFFFFFF
(2.0384957790374756) can1 18FEE000#73490300BCE03300
(2.0404326915740967) can1 0CF00203#C00000FFF7000003
(2.0423662662506104) can1 0CF00300#D10000FFFF0F6A7D
(2.044294834136963) can1 0CF00C03#00FB0000FFFFFFFF
(2.0462281703948975) can1 0CFD9200#F4FFFAFFFFFFFFFF
(2.0482089519500732) can1 18FEF200#00000000AB08FAFF
(2.050157070159912) can1 18F00F00#FFFFFFFFFFFFFFFF
(2.0520994663238525) can1 0CF00400#0E7D7D0000000F7D
(2.0540385246276855) can1 18FEDB00#FFFF8000FFFFFFFF
(2.0559756755828857) can1 0C010305#FFFFFFFFFFF3FFFF
(2.0579137802124023) can1 0CF00203#C00000FFF7000003
(2.05985164642334) can1 1CEBFF29#01140138183C4051
(2.0617878437042236) can1 18FEDF00#7DA0287D7DFFFFF0
(2.063725233078003) can1 10FCFD00#FFFFFFFF5951FFFF
(2.0656583309173584) can1 0CF00300#D10000FFFF0F6A7D
(2.0675928592681885) can1 0CF00203#C00000FFF7000003
(2.0695316791534424) can1 0CF00C03#00FB0000FFFFFFFF
(2.071469306945801) can1 18F00100#FFFFFFFFFFFFFFFF
(2.0734026432037354) can1 0CF00400#0E7D7D0000000F7D
(2.0753397941589355) can1 18FEF600#FF0039FFFFFFFFFF
(2.0772759914398193) can1 0CF00203#C00000FFF7000003
(2.0792112350463867) can1 0CFD9200#F4FFFAFFFFFFFFFF
(2.0811469554901123) can1 18FEDF00#7DA0287D7DFFFFF0
(2.0830984115600586) can1 0CF00300#D10000FFFF0F6A7D
(2.08503794670105) can1 0CF00A00#00000000FFFFFFFF
(2.0869791507720947) can1 0CF00203#C00000FFF7000003
(2.0889177322387695) can1 18FEF000#FFFFFFE015FFFFFF
(2.0908584594726562) can1 0CF00C03#00FB0000FFFFFFFF
(2.0927839279174805) can1 18F00E00#FFFFFFFFFFFFFFFF
(2.0947189331054688) can1 18F00503#7D00007D4E204E43
(2.096656322479248) can1 18FE4A03#035F4FFFFFF3FFFF
(2.0985918045043945) can1 18F03300#FFFFFFFFFFFFFFFF
(2.1005406379699707) can1 0CF00400#0E7D7D0000000F7D
(2.102574586868286) can1 0CF00331#FFFFFFFFFFFFFFFF
(2.1045114994049072) can1 18FEF200#00000000AA08FAFF
(2.106448173522949) can1 18FCF200#FAFFFFFFFFFFFFFF
(2.108381986618042) can1 0CF00203#C00000FFF7000003
(2.1103763580322266) can1 18FEDF00#7DA0287D7DFFFFF0
(2.1123297214508057) can1 18FDC600#FC04FFFFFFFFFFFF
(2.114276647567749) can1 18F00F00#FFFFFFFFFFFFFFFF
(2.1162221431732178) can1 0CF00300#D10000FFFF0F6A7D
(2.118162155151367) can1 0C010305#FFFFFFFFFFF3FFFF
(2.1200942993164062) can1 0CF00203#C00000FFF7000003
(2.122028350830078) can1 18F0010B#CFFFF0FFFFDCFFFF
(2.123972177505493) can1 0CF00C03#00FB0000FFFFFFFF
(2.1259303092956543) can1 18FEF100#FF0000FCFF6800CF
(2.127882242202759) can1 0CF00400#0E7D7D0000000F7D
(2.129821300506592) can1 1CEBFF29#022AD03A33804C2C
(2.1317553520202637) can1 10FDA300#FFFF3EFFFFFFFFFF
(2.1336872577667236) can1 18F00029#F07D7DF329FFFF3C
(2.1356327533721924) can1 0CF00203#C00000FFF7000003
(2.1375765800476074) can1 18FEBF0B#00007D7D7D7DFFFF
(2.1395204067230225) can1 0CFD9200#F4FFFAFFFFFFFFFF
(2.141475200653076) can1 18FEDF00#7DA0287D7DFFFFF0
(2.143429756164551) can1 18FCDC00#9FFFFFFF9C680000
(2.145378351211548) can1 18FEF200#00000000AA08FAFF
(2.1473207473754883) can1 0CF00300#D10000FFFF0F6A7D
(2.149268627166748) can1 0CF00203#C00000FFF7000003
(2.151214599609375) can1 1CFE9200#FF587DFFFFFF0000
(2.1531665325164795) can1 0CF00C03#00FB0000FFFFFFFF
(2.155169725418091) can1 0CF00400#0E7D7D0000000F7D
(2.1571176052093506) can1 0CF00A00#00000000FFFFFFFF
(2.1590771675109863) can1 18FD9400#0000FFFFFFFFFFFF
(2.1610686779022217) can1 0CF00203#C00000FFF7000003
(2.1630136966705322) can1 18F00E00#FFFFFFFFFFFFFFFF
(2.1649510860443115) can1 0CFD9200#F4FFFAFFFFFFFFFF
(2.1668856143951416) can1 18F03300#FFFFFFFFFFFFFFFF
(2.168872594833374) can1 18FEDF00#7DA0287D7DFFFFF0
(2.1708104610443115) can1 18F00131#FFFFFF3F00FFFFFF
(2.1727449893951416) can1 18FEF131#F7FFFFC3CCFFFFF0
(2.1746792793273926) can1 18FEF031#FFFFFFFFFFFCCCFF
(2.176607131958008) can1 18FF4831#0000FFFF00000000
(2.1785993576049805) can1 18FEF231#FFFFFFFFFFFFFFFF
(2.180518627166748) can1 0CF00331#FFFFFFFFFFFFFFFF
(2.1824562549591064) can1 18FEE000#73490300BCE03300
(2.1843957901000977) can1 0CF00203#C00000FFF7000003
(2.1865427494049072) can1 0CF00300#D10000FFFF0F6A7D
(2.188551425933838) can1 0CF00C03#00FB0000FFFFFFFF
(2.1905455589294434) can1 18FEF200#00000000AA08FAFF
(2.192486524581909) can1 18F00F00#FFFFFFFFFFFFFFFF
(2.1943883895874023) can1 0CF00400#0E7D7D0000000F7D
(2.196326732635498) can1 0C010305#FFFFFFFFFFF3FFFF
(2.2005910873413086) can1 0CF00203#C00000FFF7000003
(2.202542781829834) can1 0CFD9200#F4FFFAFFFFFFFFFF
(2.2044878005981445) can1 18FEDF00#7DA0287D7DFFFFF0
(2.206430435180664) can1 10FCFD00#FFFFFFFF5951FFFF
(2.2083780765533447) can1 0CF00300#D10000FFFF0F6A7D
(2.210315465927124) can1 0CF00203#C00000FFF7000003
(2.212630033493042) can1 0CF00C03#00FB0000FFFFFFFF
(2.214719772338867) can1 18FEF200#00000000AA08FAFF
(2.216660499572754) can1 1CEBFF29#034051C2012AFFFF
(2.2185959815979004) can1 18F00100#FFFFFFFFFFFFFFFF
(2.2205312252044678) can1 0CF00400#0E7D7D0000000F7D
(2.222463607788086) can1 0CF00203#C00000FFF7000003
(2.224393367767334) can1 18FEDF00#7DA0287D7DFFFFF0
(2.2263433933258057) can1 0CF00300#D10000FFFF0F6A7D
(2.2282845973968506) can1 0CF00A00#00000000FFFFFFFF
(2.2302210330963135) can1 0CF00203#C00000FFF7000003
(2.232154607772827) can1 18FEF000#FFFFFFE015FFFFFF
(2.234095811843872) can1 0CF00C03#00FB0000FFFFFFFF
(2.2360284328460693) can1 0CFD9200#F4FFFAFFFFFFFFFF
(2.237966299057007) can1 18F00E00#FFFFFFFFFFFFFFFF
(2.2399086952209473) can1 18F00503#7D00007D4E204E43
(2.241844892501831) can1 18FE4A03#035F4FFFFFF3FFFF
(2.2437806129455566) can1 18F03300#FFFFFFFFFFFFFFFF
(2.245716094970703) can1 0CF00400#0E7D7D0000000F7D
(2.2476556301116943) can1 0CF00331#FFFFFFFFFFFFFFFF
(2.249591827392578) can1 18FCF200#FAFFFFFFFFFFFFFF
(2.251523971557617) can1 0CF00203#C00000FFF7000003
(2.25345778465271) can1 18FEDF00#7DA0287D7DFFFFF0
(2.2553930282592773) can1 18F00F00#FFFFFFFFFFFFFFFF
(2.2573297023773193) can1 0CF00300#D10000FFFF0F6A7D
(2.259392499923706) can1 0C010305#FFFFFFFFFFF3FFFF
(2.261327028274536) can1 0CF00203#C00000FFF7000003
(2.263258695602417) can1 18FEF100#FF0000FCFF6800CF
(2.2652060985565186) can1 0CF00C03#00FB0000FFFFFFFF
(2.2671449184417725) can1 18F0010B#CFFFF0FFFFDCFFFF
(2.269080638885498) can1 0CF00400#0E7D7D0000000F7D
(2.2710061073303223) can1 10FDA300#FFFF36FFFFFFFFFF
(2.272933006286621) can1 18F00029#F07D7DF329FFFF3C
(2.2748606204986572) can1 0CF00203#C00000FFF7000003
(2.2767932415008545) can1 18FEF200#00000000AA08FAFF
(2.278729200363159) can1 18FEBF0B#00007D7D7D7DFFFF
(2.280665397644043) can1 18FEDF00#7DA0287D7DFFFFF0
(2.2825992107391357) can1 18FCDC00#9FFFFFFF9C680000
(2.2845311164855957) can1 0CF00300#D10000FFFF0F6A7D
(2.2864630222320557) can1 0CF00203#C00000FFF7000003
(2.288395643234253) can1 1CFE9200#FF607DFFFFFF0000
(2.2903335094451904) can1 0CFD9200#F4FFFAFFFFFFFFFF
(2.292267084121704) can1 0CF00C03#00FB0000FFFFFFFF
(2.294215202331543) can1 0CF00400#0E7D7D0000000F7D
(2.296213150024414) can1 0CF00A00#00000000FFFFFFFF
(2.2981481552124023) can1 18FD9400#0000FFFFFFFFFFFF
(2.3000805377960205) can1 0CF00203#C00000FFF7000003
(2.3020124435424805) can1 18F00E00#FFFFFFFFFFFFFFFF
(2.3039426803588867) can1 18F03300#FFFFFFFFFFFFFFFF
(2.3059682846069336) can1 18FEDF00#7DA0287D7DFFFFF0
(2.3079020977020264) can1 18F00131#FFFFFF3F00FFFFFF
(2.3098340034484863) can1 18FEF200#00000000AA08FAFF
(2.3117706775665283) can1 18FEF131#F7FFFFC3CCFFFFF0
(2.3137049674987793) can1 18FEF031#FFFFFFFFFFFCCCFF
(2.3156371116638184) can1 18FF4831#0000FFFF00000000
(2.3175694942474365) can1 18FEF231#FFFFFFFFFFFFFFFF
(2.3195252418518066) can1 0CF00331#FFFFFFFFFFFFFFFF
(2.321465015411377) can1 18FEE000#73490300BCE03300
(2.3234012126922607) can1 0CFD9200#F4FFFAFFFFFFFFFF
(2.3253331184387207) can1 0CF00203#C00000FFF7000003
(2.327261209487915) can1 0CF00300#D10000FFFF0F6A7D
(2.3292152881622314) can1 0CF00C03#00FB0000FFFFFFFF
(2.3311402797698975) can1 18FEF200#00000000AA08FAFF
(2.3330647945404053) can1 18F00F00#FFFFFFFFFFFFFFFF
(2.33500075340271) can1 0CF00400#0E7D7D0000000F7D
(2.3369336128234863) can1 0C010305#FFFFFFFFFFF3FFFF
(2.3388657569885254) can1 0CF00203#C00000FFF7000003
(2.34079909324646) can1 18FEDF00#7DA0287D7DFFFFF0
(2.3427343368530273) can1 10FCFD00#FFFFFFFF8051FFFF
(2.3446671962738037) can1 0CFD9200#F0FFFFFFFFFFFFFF
(2.3466129302978516) can1 0CF00300#D10000FFFF0F6A7D
(2.3485496044158936) can1 0CF00203#C00000FFF7000003
(2.350487232208252) can1 0CFD9200#F4FFFAFFFFFFFFFF
(2.353560447692871) can1 0CF00C03#00FB0000FFFFFFFF
(2.3555026054382324) can1 18F00100#FFFFFFFFFFFFFFFF
(2.357438802719116) can1 0CF00400#0E7D7D0000000F7D
(2.3593742847442627) can1 0CF00203#C00000FFF7000003
(2.361311435699463) can1 18FEDF00#7DA0287D7DFFFFF0
(2.363248586654663) can1 0CF00300#D10000FFFF0F6A7D
(2.3652138710021973) can1 0CF00A00#00000000FFFFFFFF
(2.3671531677246094) can1 0CF00203#C00000FFF7000003
(2.3690948486328125) can1 18FEF000#FFFFFFE015FFFFFF
(2.371030330657959) can1 0CF00C03#00FB0000FFFFFFFF
(2.372960329055786) can1 18F00E00#FFFFFFFFFFFFFFFF
(2.374898672103882) can1 18F00503#7D00007D4E204E43
(2.3768327236175537) can1 18FE4A03#035F4FFFFFF3FFFF
(2.378769636154175) can1 18F03300#FFFFFFFFFFFFFFFF
(2.3806967735290527) can1 0CF00400#0E7D7D0000000F7D
(2.382636070251465) can1 18FEF200#00000000AA08FAFF
(2.384563446044922) can1 0CF00331#FFFFFFFFFFFFFFFF
(2.386504888534546) can1 18FCF200#FAFFFFFFFFFFFFFF
(2.388439893722534) can1 0CF00203#C00000FFF7000003
(2.390381336212158) can1 18FEDF00#7DA0287D7DFFFFF0
(2.392327070236206) can1 18F00F00#FFFFFFFFFFFFFFFF
(2.394293785095215) can1 18FD0700#570CFCFFFFFFFFFF
(2.3962254524230957) can1 0C010305#FFFFFFFFFFF3FFFF
(2.3981564044952393) can1 0CF00203#C00000FFF7000003
(2.4000954627990723) can1 0CF00300#D10000FFFF0F6A7D
(2.402107000350952) can1 18FEF200#00000000AA08FAFF
(2.404040575027466) can1 0CF00C03#00FB0000FFFFFFFF
(2.4059743881225586) can1 18F0010B#CFFFF0FFFFDCFFFF
(2.4079108238220215) can1 18FEF100#FF0000FCFF6800CF
(2.409846305847168) can1 0CF00400#0E7D7D0000000F7D
(2.4117820262908936) can1 10FDA300#FFFF2DFFFFFFFFFF
(2.4137165546417236) can1 18F00029#F07D7DF329FFFF3C
(2.4156644344329834) can1 0CF00203#C00000FFF7000003
(2.4176042079925537) can1 18FEBF0B#00007D7D7D7DFFFF
(2.4195399284362793) can1 18FEDF00#7DA0287D7DFFFFF0
(2.4214718341827393) can1 18FCDC00#9FFFFFFF9C680000
(2.4234063625335693) can1 0CF00300#D10000FFFF0F6A7D
(2.4253408908843994) can1 18FEF200#00000000AA08FAFF
(2.427273988723755) can1 0CF00203#C00000FFF7000003
(2.429208278656006) can1 1CFE9200#FF487DFFFFFF0000
(2.4311344623565674) can1 0CF00C03#00FB0000FFFFFFFF
(2.433128595352173) can1 0CF00400#0E7D7D0000000F7D
(2.435063362121582) can1 14FC9800#FF000000000000FF
(2.4370007514953613) can1 0CF00A00#00000000FFFFFFFF
(2.438941478729248) can1 0CF00203#C00000FFF7000003
(2.4409449100494385) can1 18FD9400#0000FFFFFFFFFFFF
(2.442878484725952) can1 18F00E00#FFFFFFFFFFFFFFFF
(2.4448091983795166) can1 18F03300#FFFFFFFFFFFFFFFF
(2.446744441986084) can1 18FEDF00#7DA0287D7DFFFFF0
(2.448678970336914) can1 18F00131#FFFFFF3F00FFFFFF
(2.450613021850586) can1 18FEF131#F7FFFFC3CCFFFFF0
(2.452545404434204) can1 18FEF031#FFFFFFFFFFFCCCFF
(2.454540967941284) can1 18FF4831#0000FFFF00000000
(2.4564766883850098) can1 18FEF231#FFFFFFFFFFFFFFFF
(2.458413600921631) can1 0CF00331#FFFFFFFFFFFFFFFF
(2.460353136062622) can1 0CFD9200#F4FFFAFFFFFFFFFF
(2.4622914791107178) can1 18FEE000#73490300BCE03300
(2.4642152786254883) can1 0CF00203#C00000FFF7000003
(2.466148614883423) can1 0CF00300#D10000FFFF0F6A7D
(2.468076467514038) can1 0CF00C03#00FB0000FFFFFFFF
(2.470010995864868) can1 18FDB400#C3265925FFFFFFFF
(2.4719502925872803) can1 18FEF200#00000000AA08FAFF
(2.473891019821167) can1 18F00F00#FFFFFFFFFFFFFFFF
(2.4758291244506836) can1 0CF00400#0E7D7D0000000F7D
(2.4777660369873047) can1 0C010305#FFFFFFFFFFF3FFFF
(2.4797513484954834) can1 0CF00203#C00000FFF7000003
(2.4816830158233643) can1 18FEDF00#7DA0287D7DFFFFF0
(2.4836153984069824) can1 18FEF200#00000000AA08FAFF
(2.485546112060547) can1 10FCFD00#FFFFFFFF8051FFFF
(2.4874789714813232) can1 0CF00300#D10000FFFF0F6A7D
(2.4894165992736816) can1 0CF00203#C00000FFF7000003
(2.4913547039031982) can1 18FEF200#00000000AA08FAFF
(2.493295907974243) can1 0CF00C03#00FB0000FFFFFFFF
(2.495232582092285) can1 18F00100#FFFFFFFFFFFFFFFF
(2.4971837997436523) can1 0CF00400#0E7D7D0000000F7D
(2.4991164207458496) can1 18FDB300#FFFF6924FFFFFFFF
(2.501051187515259) can1 0CF00203#C00000FFF7000003
(2.5029900074005127) can1 18FEDF00#7DA0287D7DFFFFF0
(2.504934310913086) can1 0CF00300#D10000FFFF0F6A7D
(2.50687837600708) can1 0CF00A00#00000000FFFFFFFF
(2.5088160037994385) can1 0CF00203#C00000FFF7000003
(2.510756254196167) can1 18FEF000#FFFFFFE015FFFFFF
(2.512694835662842) can1 0CF00C03#00FB0000FFFFFFFF
(2.514631509780884) can1 18F00E00#FFFFFFFFFFFFFFFF
(2.5165693759918213) can1 18F00503#7D00007D4E204E43
(2.5192198753356934) can1 18FE4A03#035F4FFFFFF3FFFF
(2.5211586952209473) can1 18F03300#FFFFFFFFFFFFFFFF
(2.5230960845947266) can1 0CF00400#0E7D7D0000000F7D
(2.525045871734619) can1 0CF00331#FFFFFFFFFFFFFFFF
(2.5269813537597656) can1 18FDB200#FFFFFFFF0600FFFF
(2.528921365737915) can1 18FCF200#FAFFFFFFFFFFFFFF
(2.530852794647217) can1 0CF00203#C00000FFF7000003
(2.532787322998047) can1 18FEDF00#7DA0287D7DFFFFF0
(2.5347208976745605) can1 18F00F00#FFFFFFFFFFFFFFFF
(2.536652088165283) can1 0CF00300#D10000FFFF0F6A7D
(2.5385854244232178) can1 0C010305#FFFFFFFFFFF3FFFF
(2.540623426437378) can1 0CF00203#C00000FFF7000003
(2.5425591468811035) can1 18FEF100#FF0000FCFF6800CF
(2.544494152069092) can1 0CF00C03#00FB0000FFFFFFFF
(2.546511173248291) can1 18F0010B#CFFFF0FFFFDCFFFF
(2.548448324203491) can1 0CF00400#0E7D7D0000000F7D
(2.5503854751586914) can1 10FDA300#FFFF27FFFFFFFFFF
(2.5523204803466797) can1 18F00029#F07D7DF329FFFF3C
(2.5542705059051514) can1 0CF00203#C00000FFF7000003
(2.55621600151062) can1 18FEBF0B#00007D7D7D7DFFFF
(2.5581538677215576) can1 18FD8C00#FFFF0000FFFFFFFF
(2.560091972351074) can1 18FEDF00#7DA0287D7DFFFFF0
(2.5620265007019043) can1 18FCDC00#9FFFFFFF9C680000
(2.5639562606811523) can1 0CF00203#C00000FFF7000003
(2.5658864974975586) can1 0CF00300#D10000FFFF0F6A7D
(2.567821979522705) can1 0CFD9200#F4FFFAFFFFFFFFFF
(2.569868326187134) can1 0CF00C03#00FB0000FFFFFFFF
(2.571812152862549) can1 1CFE9200#FF607DFFFFFF0000
(2.573748826980591) can1 0CF00400#0E7D7D0000000F7D
(2.575685501098633) can1 0CF00A00#00000000FFFFFFFF
(2.577617883682251) can1 18FD9400#0000FFFFFFFFFFFF
(2.5795528888702393) can1 0CF00203#C00000FFF7000003
(2.5814907550811768) can1 18F00E00#FFFFFFFFFFFFFFFF
(2.5834293365478516) can1 18FD2000#C326FFFFFFFFFFFF
(2.585362195968628) can1 18F03300#FFFFFFFFFFFFFFFF
(2.5872962474823) can1 18FEDF00#7DA0287D7DFFFFF0
(2.589306354522705) can1 18F00131#FFFFFF3F00FFFFFF
(2.591248035430908) can1 18E0FF31#FAFFFFFFFFF0FFFF
(2.5931928157806396) can1 18FEF131#F7FFFFC3CCFFFFF0
(2.595125913619995) can1 18FEF031#FFFFFFFFFFFCCCFF
(2.5970613956451416) can1 18FEFC31#FF33FFFFFFFF00FF
(2.598998785018921) can1 18FEAE31#FFFF0501FFFFFFFF
(2.6009485721588135) can1 18FEE000#73490300BCE03300
(2.602952241897583) can1 0CF00203#C00000FFF7000003
(2.604895830154419) can1 0CF00300#D10000FFFF0F6A7D
(2.606842041015625) can1 0CFD9200#F4FFFAFFFFFFFFFF
(2.6087796688079834) can1 0CF00C03#00FB0000FFFFFFFF
(2.6107401847839355) can1 18FEF731#FFFFFFFFED00FFFF
(2.612677812576294) can1 18FF4831#0000FFFF00000000
(2.6146178245544434) can1 18FD8331#F8FFFFFFFFFFFFFF
(2.6165549755096436) can1 18FEF831#FFFFFFFFFFFFFFFF
(2.618492841720581) can1 18FEF200#00000000AA08FAFF
(2.6204264163970947) can1 18F00F00#FFFFFFFFFFFFFFFF
(2.622373342514038) can1 18FEF231#FFFFFFFFFFFFFFFF
(2.6243066787719727) can1 0CF00400#0E7D7D0000000F7D
(2.626254081726074) can1 18FEFA31#FF0902FFFFFFFFFF
(2.6282296180725098) can1 18FEC131#5FF21005FFFFFFFF
(2.6301629543304443) can1 0CF00331#FFFFFFFFFFFFFFFF
(2.632091522216797) can1 0C010305#FFFFFFFFFFF3FFFF
(2.6340172290802) can1 0CF00203#C00000FFF7000003
(2.6359429359436035) can1 18FEDF00#7DA0287D7DFFFFF0
(2.637903928756714) can1 10FCFD00#FFFFFFFF8051FFFF
(2.6398353576660156) can1 18FD3E00#4C24FF6924FFFFFF
(2.641770124435425) can1 0CF00300#D10000FFFF0F6A7D
(2.643705368041992) can1 0CF00203#C00000FFF7000003
(2.6456384658813477) can1 0CF00C03#00FB0000FFFFFFFF
(2.647570848464966) can1 18F00100#FFFFFFFFFFFFFFFF
(2.6495068073272705) can1 0CF00400#0E7D7D0000000F7D
(2.6514360904693604) can1 0CF00203#C00000FFF7000003
(2.653366804122925) can1 18FEF200#00000000AA08FAFF
(2.6552963256835938) can1 18FEDF00#7DA0287D7DFFFFF0
(2.6572344303131104) can1 18FD4000#FF3F00FFFFFFFFFF
(2.6591720581054688) can1 0CF00300#D10000FFFF0F6A7D
(2.6611008644104004) can1 0CF00203#C00000FFF7000003
(2.663037061691284) can1 0CF00A00#00000000FFFFFFFF
(2.6649701595306396) can1 0CF00C03#00FB0000FFFFFFFF
(2.6669044494628906) can1 18FEF000#FFFFFFE015FFFFFF
(2.6688308715820312) can1 18F00503#7D00007D4E204E43
(2.6707663536071777) can1 18F00E00#FFFFFFFFFFFFFFFF
(2.6726973056793213) can1 18FE4A03#035F4FFFFFF3FFFF
(2.674630641937256) can1 18F03300#FFFFFFFFFFFFFFFF
(2.6766319274902344) can1 18FD9503#CCFFFFBBFFFFFFFF
(2.678574800491333) can1 0CF00400#0E7D7D0000000F7D
(2.680516242980957) can1 18FEF803#FFFFFFFF1424FFFF
(2.6824517250061035) can1 0CF00331#FFFFFFFFFFFFFFFF
(2.6843934059143066) can1 18FCF200#FAFFFFFFFFFFFFFF
(2.686335325241089) can1 0CF00203#C00000FFF7000003
(2.6882686614990234) can1 18FEDF00#7DA0287D7DFFFFF0
(2.690373182296753) can1 18F00F00#FFFFFFFFFFFFFFFF
(2.692420244216919) can1 0CF00300#D10000FFFF0F6A7D
(2.6943578720092773) can1 0C010305#FFFFFFFFFFF3FFFF
(2.697261333465576) can1 0CF00203#C00000FFF7000003
(2.6992015838623047) can1 18FEF100#FF0000FCFF6800CF
(2.7011454105377197) can1 0CF00C03#00FB0000FFFFFFFF
(2.703070878982544) can1 18F0010B#CFFFF0FFFFDCFFFF
(2.7049992084503174) can1 18FCC500#4C24FFFFFFFFFFFF
(2.7069311141967773) can1 0CFD9200#F0FFFFFFFFFFFFFF
(2.7088582515716553) can1 0CF00400#0E7D7D0000000F7D
(2.71079683303833) can1 0CFD9200#F4FFFAFFFFFFFFFF
(2.7127325534820557) can1 10FDA300#FFFF26FFFFFFFFFF
(2.7146689891815186) can1 18F00029#F07D7DF329FFFF3C
(2.7165944576263428) can1 0CF00203#C00000FFF7000003
(2.7185239791870117) can1 18FECA03#00FF00000000FFFF
(2.720456600189209) can1 18FEBF0B#00007D7D7D7DFFFF
(2.7223846912384033) can1 18FEDF00#7DA0287D7DFFFFF0
(2.724324941635132) can1 18FCDC00#9FFFFFFF9C680000
(2.7262532711029053) can1 0CF00203#C00000FFF7000003
(2.728214979171753) can1 0CF00300#D10000FFFF0F6A7D
(2.7301487922668457) can1 0CF00C03#00FB0000FFFFFFFF
(2.7321083545684814) can1 1CFE9200#FF587DFFFFFF0000
(2.7340517044067383) can1 0CF00400#0E7D7D0000000F7D
(2.736105442047119) can1 0CF00A00#00000000FFFFFFFF
(2.738046646118164) can1 18FD9400#0000FFFFFFFFFFFF
(2.740021228790283) can1 0CF00203#C00000FFF7000003
(2.7419588565826416) can1 18FEEF00#FFFFFF00FF7CFFFA
(2.7439684867858887) can1 18F00E00#FFFFFFFFFFFFFFFF
(2.745910167694092) can1 18F03300#FFFFFFFFFFFFFFFF
(2.747845411300659) can1 18FEDF00#7DA0287D7DFFFFF0
(2.749779462814331) can1 18F00131#FFFFFF3F00FFFFFF
(2.7517120838165283) can1 18FEF131#F7FFFFC3CCFFFFF0
(2.753648281097412) can1 18FEF031#FFFFFFFFFFFCCCFF
(2.7555763721466064) can1 18FF4831#0000FFFF00000000
(2.757556438446045) can1 18FEF231#FFFFFFFFFFFFFFFF
(2.7594940662384033) can1 0CF00331#FFFFFFFFFFFFFFFF
(2.7614283561706543) can1 18FEE000#73490300BCE03300
(2.7633676528930664) can1 0CF00203#C00000FFF7000003
(2.7653045654296875) can1 0CF00300#D10000FFFF0F6A7D
(2.7672371864318848) can1 0CF00C03#00FB0000FFFFFFFF
(2.769165515899658) can1 18FEF200#00000000AA08FAFF
(2.7711896896362305) can1 18F00F00#FFFFFFFFFFFFFFFF
(2.7731258869171143) can1 0CF00400#0E7D7D0000000F7D
(2.7750580310821533) can1 18FEDB00#FFFF8A00FFFFFFFF
(2.7769923210144043) can1 0C010305#FFFFFFFFFFF3FFFF
(2.7789306640625) can1 0CF00203#C00000FFF7000003
(2.7808618545532227) can1 18FEDF00#7DA0287D7DFFFFF0
(2.782796621322632) can1 10FCFD00#FFFFFFFF8051FFFF
(2.784723997116089) can1 0CF00300#D10000FFFF0F6A7D
(2.7866556644439697) can1 0CF00203#C00000FFF7000003
(2.7885875701904297) can1 0CFD9200#F4FFFAFFFFFFFFFF
(2.7905197143554688) can1 0CF00C03#00FB0000FFFFFFFF
(2.792494297027588) can1 18F00100#FFFFFFFFFFFFFFFF
(2.794424057006836) can1 0CF00400#0E7D7D0000000F7D
(2.79634952545166) can1 18FEF600#FF0039FFFFFFFFFF
(2.7982826232910156) can1 0CF00203#C00000FFF7000003
(2.800283432006836) can1 18FEDF00#7DA0287D7DFFFFF0
(2.802218437194824) can1 0CF00300#D10000FFFF0F6A7D
(2.8041481971740723) can1 0CF00A00#00000000FFFFFFFF
(2.8060755729675293) can1 0CF00203#C00000FFF7000003
(2.8084843158721924) can1 18FEF000#FFFFFFE015FFFFFF
(2.8110485076904297) can1 0CF00C03#00FB0000FFFFFFFF
(2.81298828125) can1 18F00E00#FFFFFFFFFFFFFFFF
(2.814924716949463) can1 18F00503#7D00007D4E204E43
(2.8192083835601807) can1 18FE4A03#031F4FFFFFF3FFFF
(2.821153163909912) can1 18F03300#FFFFFFFFFFFFFFFF
(2.823103189468384) can1 0CFD9200#F4FFFAFFFFFFFFFF
(2.825035333633423) can1 0CF00400#0E7D7D0000000F7D
(2.826967477798462) can1 0CF00331#FFFFFFFFFFFFFFFF
(2.8289027214050293) can1 18FCF200#FAFFFFFFFFFFFFFF
(2.8308377265930176) can1 0CF00203#C00000FFF7000003
(2.8327882289886475) can1 18FEF200#00000000AA08FAFF
(2.8347198963165283) can1 18FEDF00#7DA0287D7DFFFFF0
(2.8366599082946777) can1 18FDC600#FC04FFFFFFFFFFFF
(2.838601589202881) can1 18F00F00#FFFFFFFFFFFFFFFF
(2.8405508995056152) can1 0CF00300#D10000FFFF0F6A7D
(2.8424997329711914) can1 0C010305#FFFFFFFFFFF3FFFF
(2.844442367553711) can1 0CF00203#C00000FFF7000003
(2.8463828563690186) can1 18FEF100#FF0000FCFF6800CF
(2.8483190536499023) can1 0CF00C03#00FB0000FFFFFFFF
(2.850254535675049) can1 18F0010B#CFFFF0FFFFDCFFFF
(2.8522233963012695) can1 0CF00400#0E7D7D0000000F7D
(2.854156494140625) can1 10FDA300#FFFF26FFFFFFFFFF
(2.8560843467712402) can1 18FEF200#00000000AA08FAFF
(2.8645925521850586) can1 18F00029#F07D7DF329FFFF3C
(2.8665809631347656) can1 0CF00203#C00000FFF7000003
(2.868532180786133) can1 18FEBF0B#00007D7D7D7DFFFF
(2.870486259460449) can1 18FEDF00#7DA0287D7DFFFFF0
(2.8724515438079834) can1 18FCDC00#9FFFFFFF9C680000
(2.8744142055511475) can1 0CF00203#C00000FFF7000003
(2.876370429992676) can1 0CF00300#D10000FFFF0F6A7D
(2.878326416015625) can1 0CF00C03#00FB0000FFFFFFFF
(2.880270481109619) can1 1CFE9200#FF547DFFFFFF0000
(2.882208824157715) can1 18FECA0B#04FF00000000FFFF
(2.884141445159912) can1 0CF00400#0E7D7D0000000F7D
(2.8860747814178467) can1 0CF00A00#00000000FFFFFFFF
(2.888007402420044) can1 18FD9400#0000FFFFFFFFFFFF
(2.8899550437927246) can1 0CF00203#C00000FFF7000003
(2.8919031620025635) can1 18F00E00#FFFFFFFFFFFFFFFF
(2.893843412399292) can1 18F03300#FFFFFFFFFFFFFFFF
(2.8958685398101807) can1 18FEDF00#7DA0287D7DFFFFF0
(2.8978142738342285) can1 18F00131#FFFFFF3F00FFFFFF
(2.89975905418396) can1 18FEF131#F7FFFFC3CCFFFFF0
(2.9017059803009033) can1 18FEF031#FFFFFFFFFFFCCCFF
(2.9036800861358643) can1 18FF4831#0000FFFF00000000
(2.905630111694336) can1 18FEF231#FFFFFFFFFFFFFFFF
(2.907578706741333) can1 0CF00331#FFFFFFFFFFFFFFFF
(2.9095256328582764) can1 18FEF700#FFFFFFFFED00FFFF
(2.9114675521850586) can1 0CF00203#C00000FFF7000003
(2.9134044647216797) can1 18FEE000#73490300BCE03300
(2.9153389930725098) can1 0CF00C03#00FB0000FFFFFFFF
(2.917275905609131) can1 0CF00300#D10000FFFF0F6A7D
(2.919220447540283) can1 18FEF200#00000000AB08FAFF
(2.9211513996124268) can1 18F00F00#FFFFFFFFFFFFFFFF
(2.92309832572937) can1 0CF00400#0E7D7D0000000F7D
(2.9250450134277344) can1 0C010305#FFFFFFFFFFF3FFFF
(2.926990509033203) can1 0CF00203#C00000FFF7000003
(2.9289369583129883) can1 18FEDF00#7DA0287D7DFFFFF0
(2.9308862686157227) can1 10FCFD00#FFFFFFFF8051FFFF
(2.9328324794769287) can1 18FEC100#5FF210054F2C5200
(2.9347779750823975) can1 0CF00203#C00000FFF7000003
(2.936706781387329) can1 0CF00300#D10000FFFF0F6A7D
(2.938646078109741) can1 0CF00C03#00FB0000FFFFFFFF
(2.940580368041992) can1 18F00100#FFFFFFFFFFFFFFFF
(2.9425158500671387) can1 0CF00400#0E7D7D0000000F7D
(2.9444689750671387) can1 0CF00203#C00000FFF7000003
(2.9464027881622314) can1 18FEDF00#7DA0287D7DFFFFF0
(2.9483373165130615) can1 0CF00300#D10000FFFF0F6A7D
(2.950274705886841) can1 0CF00203#C00000FFF7000003
(2.95220947265625) can1 0CF00A00#00000000FFFFFFFF
(2.9541423320770264) can1 0CF00C03#00FB0000FFFFFFFF
(2.9560744762420654) can1 0CFD9200#F4FFFAFFFFFFFFFF
(2.9580092430114746) can1 18FEF000#FFFFFFE015FFFFFF
(2.959946870803833) can1 18F00503#7D00007D4E204E43
(2.9618828296661377) can1 18F00E00#FFFFFFFFFFFFFFFF
(2.9638164043426514) can1 18FE4A03#031F4FFFFFF3FFFF
(2.9657535552978516) can1 18FE5600#9735FFFF1F1F00FF
(2.9676930904388428) can1 18F03300#FFFFFFFFFFFFFFFF
(2.96962833404541) can1 0CF00400#0E7D7D0000000F7D
(2.9715576171875) can1 0CF00331#FFFFFFFFFFFFFFFF
(2.97349214553833) can1 18FCF200#FAFFFFFFFFFFFFFF
(2.9754257202148438) can1 0CF00203#C00000FFF7000003
(2.9773573875427246) can1 18FEDF00#7DA0287D7DFFFFF0
(2.9792892932891846) can1 18F00F00#FFFFFFFFFFFFFFFF
(2.9812445640563965) can1 0CF00300#D10000FFFF0F6A7D
(2.9832565784454346) can1 18FEF200#00000000AA08FAFF
(2.9852054119110107) can1 0C010305#FFFFFFFFFFF3FFFF
(2.987220287322998) can1 0CF00203#C00000FFF7000003
(2.9891839027404785) can1 18FEF100#FF0000FCFF6800CF
(2.991122007369995) can1 0CF00C03#00FB0000FFFFFFFF
(2.9930548667907715) can1 18F0010B#CFFFF0FFFFDCFFFF
(2.9949936866760254) can1 18FD7B00#00FFE67700008237
(2.996917963027954) can1 0CF00400#0E7D7D0000000F7D
(2.998849868774414) can1 10FDA300#FFFF26FFFFFFFFFF
(3.0007827281951904) can1 0CF00203#C00000FFF7000003
(3.002728223800659) can1 18F00029#F07D7DF329FFFF3C
(3.004655361175537) can1 18FEBF0B#00007D7D7D7DFFFF
(3.006655693054199) can1 18FEDF00#7DA0287D7DFFFFF0
(3.0086212158203125) can1 18FCDC00#9FFFFFFF9C680000
(3.010554552078247) can1 0CF00203#C00000FFF7000003
(3.0124902725219727) can1 0CF00300#D10000FFFF0F6A7D
(3.0144286155700684) can1 0CF00C03#00FB0000FFFFFFFF
(3.016364812850952) can1 1CFE9200#FF5C7DFFFFFF0000
(3.018310785293579) can1 0CF00400#0E7D7D0000000F7D
(3.020236015319824) can1 0CF00A00#00000000FFFFFFFF
(3.0221707820892334) can1 0CF00203#C00000FFF7000003
(3.024103879928589) can1 18FD9400#0000FFFFFFFFFFFF
(3.026028633117676) can1 18FEDD00#FF0000FFFFFFFFFF
(3.027961492538452) can1 18F00E00#FFFFFFFFFFFFFFFF
(3.0298891067504883) can1 18F03300#FFFFFFFFFFFFFFFF
(3.0318198204040527) can1 18FEDF00#7DA0287D7DFFFFF0
(3.0337467193603516) can1 18F00131#FFFFFF3F00FFFFFF
(3.035670042037964) can1 18FEF200#00000000AA08FAFF
(3.037595272064209) can1 18FEF131#F7FFFFC3CCFFFFF0
(3.039529800415039) can1 18FEF031#FFFFFFFFFFFCCCFF
(3.0415103435516357) can1 18FF4831#0000FFFF00000000
(3.0434467792510986) can1 18FEF231#FFFFFFFFFFFFFFFF
(3.0453758239746094) can1 0CF00331#FFFFFFFFFFFFFFFF
(3.0473039150238037) can1 18FEE000#73490300BCE03300
(3.049238920211792) can1 0CF00203#C00000FFF7000003
(3.051182270050049) can1 0CF00300#D10000FFFF0F6A7D
(3.053128480911255) can1 0CFD9200#F4FFFAFFFFFFFFFF
(3.0550596714019775) can1 0CF00C03#00FB0000FFFFFFFF
(3.0569956302642822) can1 18FEF200#00000000AA08FAFF
(3.058932304382324) can1 18F00F00#FFFFFFFFFFFFFFFF
(3.060870885848999) can1 0CF00400#0E7D7D0000000F7D
(3.062807321548462) can1 18FEE400#FF3FFCFD007FFFFF
(3.064812183380127) can1 0C010305#FFFFFFFFFFF3FFFF
(3.066821336746216) can1 0CF00203#C00000FFF7000003
(3.068756341934204) can1 18FEDF00#7DA0287D7DFFFFF0
(3.070690393447876) can1 10FCFD00#FFFFFFFF8051FFFF
(3.0726232528686523) can1 0CFD9200#F0FFFFFFFFFFFFFF
(3.074557065963745) can1 0CF00300#D10000FFFF0F6A7D
(3.076490640640259) can1 0CF00203#C00000FFF7000003
(3.0784223079681396) can1 0CF00C03#00FB0000FFFFFFFF
(3.0803563594818115) can1 18F00100#FFFFFFFFFFFFFFFF
(3.082284927368164) can1 0CF00400#0E7D7D0000000F7D
(3.084211587905884) can1 0CF00203#C00000FFF7000003
(3.0861425399780273) can1 18FEDF00#7DA0287D7DFFFFF0
(3.0880701541900635) can1 0CF00300#D10000FFFF0F6A7D
(3.0900046825408936) can1 0CF00203#C00000FFF7000003
(3.091944694519043) can1 0CF00A00#00000000FFFFFFFF
(3.093886613845825) can1 0CF00C03#00FB0000FFFFFFFF
(3.095813751220703) can1 18FEF000#FFFFFFE015FFFFFF
(3.09773850440979) can1 18F00503#7D00007D4E204E43
(3.099721908569336) can1 18FEBD00#00F0FFFFFFFFFFFF
(3.1016526222229004) can1 18F00E00#FFFFFFFFFFFFFFFF
(3.103583574295044) can1 18FEF200#00000000AA08FAFF
(3.105515718460083) can1 18FE4A03#031F4FFFFFF3FFFF
(3.108083486557007) can1 18F03300#FFFFFFFFFFFFFFFF
(3.110200881958008) can1 18FEF200#00000000AA08FAFF
(3.1122400760650635) can1 0CF00400#0E7D7D0000000F7D
(3.1146934032440186) can1 0CF00331#FFFFFFFFFFFFFFFF
(3.116631507873535) can1 18FECA31#00FF00000000FFFF
(3.1185662746429443) can1 18FCF200#FAFFFFFFFFFFFFFF
(3.1205050945281982) can1 0CF00203#C00000FFF7000003
(3.1224377155303955) can1 0CFD9200#F4FFFAFFFFFFFFFF
(3.1243715286254883) can1 18FEDF00#7DA0287D7DFFFFF0
(3.126307964324951) can1 18E0FF00#00FFFFFFFFFFFFFF
(3.128239870071411) can1 18F00F00#FFFFFFFFFFFFFFFF
(3.130167245864868) can1 18FD0700#470CFCFFFFFFFFFF
(3.13208270072937) can1 0C010305#FFFFFFFFFFF3FFFF
(3.1340105533599854) can1 0CF00203#C00000FFF7000003
(3.136035203933716) can1 0CF00300#D10000FFFF0F6A7D
(3.1379756927490234) can1 0CF00C03#00FB0000FFFFFFFF
(3.1399106979370117) can1 18FEF100#FF0000FCFF6800CF
(3.141897201538086) can1 18F0010B#CFFFF0FFFFDCFFFF
(3.1438241004943848) can1 18FEEE00#37FFFFFFFFFFFFFF
(3.1457488536834717) can1 0CF00400#0E7D7D0000000F7D
(3.1476731300354004) can1 10FDA300#FFFF26FFFFFFFFFF
(3.1512720584869385) can1 0CF00203#C00000FFF7000003
(3.1532275676727295) can1 18F00029#F07D7DF329FFFF3C
(3.1551804542541504) can1 18FEBF0B#00007D7D7D7DFFFF
(3.157136917114258) can1 0CFD9200#F4FFFAFFFFFFFFFF
(3.1590914726257324) can1 18FEDF00#7DA0287D7DFFFFF0
(3.161038875579834) can1 18FCDC00#9FFFFFFF9C680000
(3.1629886627197266) can1 0CF00203#C00000FFF7000003
(3.1649625301361084) can1 0CF00300#D10000FFFF0F6A7D
(3.1669163703918457) can1 0CF00C03#00FB0000FFFFFFFF
(3.1688640117645264) can1 1CFE9200#FF647DFFFFFF0000
(3.1708085536956787) can1 18FEF500#AAFFFF4F25FFFFFF
(3.1727657318115234) can1 0CF00400#0E7D7D0000000F7D
(3.174720048904419) can1 14FC9800#FF000000000000FF
(3.1766724586486816) can1 0CF00A00#00000000FFFFFFFF
(3.1786201000213623) can1 0CF00203#C00000FFF7000003
(3.1806108951568604) can1 18FD9400#0000FFFFFFFFFFFF
(3.1825509071350098) can1 18F00E00#FFFFFFFFFFFFFFFF
(3.184485673904419) can1 18F03300#FFFFFFFFFFFFFFFF
(3.186413526535034) can1 18FEDF00#7DA0287D7DFFFFF0
(3.1884188652038574) can1 18F00131#FFFFFF3F00FFFFFF
(3.1903605461120605) can1 18FEF131#F7FFFFC3CCFFFFF0
(3.1923060417175293) can1 18FEF031#FFFFFFFFFFFCCCFF
(3.1943087577819824) can1 18F11031#0000FFFFFFFFFFFF
(3.196256160736084) can1 18FF4831#0000FFFF00000000
(3.198214530944824) can1 18FEF231#FFFFFFFFFFFFFFFF
(3.201036214828491) can1 18FEE000#73490300BCE03300
(3.203260898590088) can1 0CF00203#C00000FFF7000003
(3.2054436206817627) can1 18FEF200#00000000AA08FAFF
(3.2096107006073) can1 0CF00300#D10000FFFF0F6A7D
(3.211540460586548) can1 0CF00331#FFFFFFFFFFFFFFFF
(3.2134852409362793) can1 0CF00C03#00FB0000FFFFFFFF
(3.215426445007324) can1 18FEA400#FFFF1D24FFFF3B24
(3.217479705810547) can1 18FDB400#C3265925FFFFFFFF
(3.2194182872772217) can1 18FEF200#00000000AA08FAFF
(3.2213551998138428) can1 18FEF200#00000000AA08FAFF
(3.2262861728668213) can1 18FEF200#00000000AA08FAFF
(3.2282392978668213) can1 18F00F00#FFFFFFFFFFFFFFFF
(3.2301933765411377) can1 0CF00400#0E7D7D0000000F7D
(3.232158899307251) can1 0C010305#FFFFFFFFFFF3FFFF
(3.234099864959717) can1 0CF00203#C00000FFF7000003
(3.236029863357544) can1 18FEDF00#7DA0287D7DFFFFF0
(3.2379724979400635) can1 10FCFD00#FFFFFFFF8051FFFF
(3.2400505542755127) can1 0CF00300#D10000FFFF0F6A7D
(3.2420003414154053) can1 0CF00203#C00000FFF7000003
(3.2439041137695312) can1 0CF00C03#00FB0000FFFFFFFF
(3.2458786964416504) can1 18FD7C00#F8830100C31F03FF
(3.2478206157684326) can1 18F00100#FFFFFFFFFFFFFFFF
(3.249753475189209) can1 0CF00400#0E7D7D0000000F7D
(3.2516908645629883) can1 18FDB300#FFFF6924FFFFFFFF
(3.2536191940307617) can1 0CF00203#C00000FFF7000003
(3.2555429935455322) can1 18FEDF00#7DA0287D7DFFFFF0
(3.2574737071990967) can1 0CF00300#D10000FFFF0F6A7D
(3.2594077587127686) can1 0CF00203#C00000FFF7000003
(3.2613394260406494) can1 0CF00A00#00000000FFFFFFFF
(3.2632808685302734) can1 0CF00C03#00FB0000FFFFFFFF
(3.2652320861816406) can1 18FEF000#FFFFFFE015FFFFFF
(3.2671844959259033) can1 18F00503#7D00007D4E204E43
(3.269146203994751) can1 18F00E00#FFFFFFFFFFFFFFFF
(3.2711129188537598) can1 18FE4A03#031F4FFFFFF3FFFF
(3.273052453994751) can1 18F03300#FFFFFFFFFFFFFFFF
(3.2749929428100586) can1 18FE9A00#7724FFFFFFFFFFFF
(3.2769274711608887) can1 0CF00400#0E7D7D0000000F7D
(3.278855800628662) can1 0CF00331#FFFFFFFFFFFFFFFF
(3.280804395675659) can1 18FDB200#FFFFFFFF0600FFFF
(3.2827506065368652) can1 0CF00203#C00000FFF7000003
(3.284696578979492) can1 18FCF200#FAFFFFFFFFFFFFFF
(3.2866461277008057) can1 0CFD9200#F4FFFAFFFFFFFFFF
(3.2885820865631104) can1 18FEDF00#7DA0287D7DFFFFF0
(3.290489673614502) can1 18F00F00#FFFFFFFFFFFFFFFF
(3.2924418449401855) can1 0CF00300#D10000FFFF0F6A7D
(3.294395685195923) can1 18FEF200#00000000AA08FAFF
(3.2963435649871826) can1 0C010305#FFFFFFFFFFF3FFFF
(3.2982897758483887) can1 0CF00203#C00000FFF7000003
(3.300231456756592) can1 18FEF100#FF0000FCFF6800CF
(3.3021695613861084) can1 0CF00C03#00FB0000FFFFFFFF
(3.304105758666992) can1 18F0010B#CFFFF0FFFFDCFFFF
(3.306039810180664) can1 0CF00400#0E7D7D0000000F7D
(3.3079729080200195) can1 10FDA300#FFFF26FFFFFFFFFF
(3.309908151626587) can1 0CF00203#C00000FFF7000003
(3.311833143234253) can1 18FE9900#FFFFFFFFFFFFFFFF
(3.3137571811676025) can1 18F00029#F07D7DF329FFFF3C
(3.3156919479370117) can1 18FEBF0B#00007D7D7D7DFFFF
(3.3176190853118896) can1 18FD8C00#FFFF0000FFFFFFFF
(3.3195571899414062) can1 18FEDF00#7DA0287D7DFFFFF0
(3.3215065002441406) can1 18FCDC00#9FFFFFFF9C680000
(3.323451280593872) can1 0CFD9200#F4FFFAFFFFFFFFFF
(3.3253955841064453) can1 0CF00203#C00000FFF7000003
(3.3273441791534424) can1 18FEF200#00000000AA08FAFF
(3.329298973083496) can1 0CF00300#D10000FFFF0F6A7D
(3.331279754638672) can1 0CFD9200#F4FFFAFFFFFFFFFF
(3.333235025405884) can1 0CFD9200#F4FFFAFFFFFFFFFF
(3.3351800441741943) can1 18FEF200#00000000AA08FAFF
(3.3371479511260986) can1 0CF00C03#00FB0000FFFFFFFF
(3.339110851287842) can1 1CFE9200#FF587DFFFFFF0000
(3.341062068939209) can1 0CF00400#0E7D7D0000000F7D
(3.343015432357788) can1 0CF00A00#00000000FFFFFFFF
(3.3449618816375732) can1 0CF00203#C00000FFF7000003
(3.346911668777466) can1 18FD9400#0000FFFFFFFFFFFF
(3.3488686084747314) can1 18FEFC00#FFFFFFFFFFFFFFFF
(3.3508222103118896) can1 0CFD9200#F4FFFAFFFFFFFFFF
(3.3527770042419434) can1 18F00E00#FFFFFFFFFFFFFFFF
(3.3547186851501465) can1 18FD2000#C326FFFFFFFFFFFF
(3.3566601276397705) can1 18F03300#FFFFFFFFFFFFFFFF
(3.3585939407348633) can1 18FEDF00#7DA0287D7DFFFFF0
(3.3605289459228516) can1 18F00131#FFFFFF3F00FFFFFF
(3.3624632358551025) can1 18FEF131#F7FFFFC3CCFFFFF0
(3.364388942718506) can1 18FEF031#FFFFFFFFFFFCCCFF
(3.366323471069336) can1 18FF4831#0000FFFF00000000
(3.3682596683502197) can1 18FEF231#FFFFFFFFFFFFFFFF
(3.3701956272125244) can1 0CF00331#FFFFFFFFFFFFFFFF
(3.372140407562256) can1 0CF00203#C00000FFF7000003
(3.3740875720977783) can1 18FEE000#73490300BCE03300
(3.3760290145874023) can1 0CF00300#D10000FFFF0F6A7D
(3.377971649169922) can1 0CF00C03#00FB0000FFFFFFFF
(3.379930257797241) can1 18FEF200#00000000AA08FAFF
(3.381903648376465) can1 18F00F00#FFFFFFFFFFFFFFFF
(3.3838391304016113) can1 0CFD9200#F4FFFAFFFFFFFFFF
(3.3857641220092773) can1 0CF00400#0E7D7D0000000F7D
(3.387692451477051) can1 0C010305#FFFFFFFFFFF3FFFF
(3.38962721824646) can1 0CF00203#C00000FFF7000003
(3.39156436920166) can1 18FEDF00#7DA0287D7DFFFFF0
(3.3934972286224365) can1 10FCFD00#FFFFFFFF9051FFFF
(3.3954410552978516) can1 18FD3E00#4C24FF7024FFFFFF
(3.397371292114258) can1 0CF00203#C00000FFF7000003
(3.399308919906616) can1 0CF00300#D10000FFFF0F6A7D
(3.4012506008148193) can1 0CF00C03#00FB0000FFFFFFFF
(3.403200626373291) can1 18F00100#FFFFFFFFFFFFFFFF
(3.4051547050476074) can1 0CF00400#0E7D7D0000000F7D
(3.4070963859558105) can1 0CF00203#C00000FFF7000003
(3.409040689468384) can1 18FEDF00#7DA0287D7DFFFFF0
(3.4110634326934814) can1 18FD4000#FF3F00FFFFFFFFFF
(3.413004159927368) can1 0CF00203#C00000FFF7000003
(3.4149460792541504) can1 0CF00300#D10000FFFF0F6A7D
(3.416888952255249) can1 0CF00A00#00000000FFFFFFFF
(3.4188308715820312) can1 0CF00C03#00FB0000FFFFFFFF
(3.420764684677124) can1 18FEF000#FFFFFFE015FFFFFF
(3.422691822052002) can1 18F00503#7D00007D4E204E43
(3.4246325492858887) can1 18F00E00#FFFFFFFFFFFFFFFF
(3.426563262939453) can1 18FE4A03#031F4FFFFFF3FFFF
(3.4285378456115723) can1 18FECA00#03FF00000000FFFF
(3.430473804473877) can1 18F03300#FFFFFFFFFFFFFFFF
(3.432405948638916) can1 0CF00400#0E7D7D0000000F7D
(3.4342916011810303) can1 0CF00331#FFFFFFFFFFFFFFFF
(3.4362218379974365) can1 18FCF200#FAFFFFFFFFFFFFFF
(3.43815279006958) can1 0CF00203#C00000FFF7000003
(3.4400835037231445) can1 18FEDF00#7DA0287D7DFFFFF0
(3.4420125484466553) can1 18F00F00#FFFFFFFFFFFFFFFF
(3.4439594745635986) can1 0CF00300#D10000FFFF0F6A7D
(3.4459035396575928) can1 0C010305#FFFFFFFFFFF3FFFF
(3.44785737991333) can1 0CF00203#C00000FFF7000003
(3.4498097896575928) can1 18FEF100#FF0000FCFF6800CF
(3.4517455101013184) can1 18FEF200#00000000AA08FAFF
(3.4536831378936768) can1 0CF00C03#00FB0000FFFFFFFF
(3.4556174278259277) can1 18F0010B#CFFFF0FFFFDCFFFF
(3.457555055618286) can1 18FCC500#4C24FFFFFFFFFFFF
(3.459489583969116) can1 0CFD9200#F0FFFFFFFFFFFFFF
(3.4614241123199463) can1 0CF00400#0E7D7D0000000F7D
(3.463357925415039) can1 10FDA300#FFFF26FFFFFFFFFF
(3.4652814865112305) can1 0CF00203#C00000FFF7000003
(3.467214345932007) can1 0CFD9200#F4FFFAFFFFFFFFFF
(3.469214916229248) can1 18F00029#F07D7DF329FFFF3C
(3.4711647033691406) can1 18FEBF0B#00007D7D7D7DFFFF
(3.4731013774871826) can1 0CFD9200#F4FFFAFFFFFFFFFF
(3.4750471115112305) can1 18FEDF00#7DA0287D7DFFFFF0
(3.4769980907440186) can1 18FCDC00#9FFFFFFF9C680000
(3.478947162628174) can1 0CF00203#C00000FFF7000003
(3.4808976650238037) can1 0CF00300#D10000FFFF0F6A7D
(3.4828226566314697) can1 0CF00C03#00FB0000FFFFFFFF
(3.484744071960449) can1 18FEF200#00000000AA08FAFF
(3.48667311668396) can1 1CFE9200#FF5C7DFFFFFF0000
(3.4885995388031006) can1 0CF00400#0E7D7D0000000F7D
(3.490527391433716) can1 0CF00A00#00000000FFFFFFFF
(3.4924612045288086) can1 0CF00203#C00000FFF7000003
(3.4944040775299072) can1 18FD9400#0000FFFFFFFFFFFF
(3.4963436126708984) can1 18FEF200#00000000AA08FAFF
(3.4982962608337402) can1 18FEEF00#FFFFFF00FF7CFFFA
(3.500244379043579) can1 0CFD9200#F4FFFAFFFFFFFFFF
(3.50219464302063) can1 18F00E00#FFFFFFFFFFFFFFFF
(3.5041487216949463) can1 18FEF200#00000000AA08FAFF
(3.5060975551605225) can1 18F03300#FFFFFFFFFFFFFFFF
(3.508063793182373) can1 18FEDF00#7DA0287D7DFFFFF0
(3.510007619857788) can1 18F00131#FFFFFF3F00FFFFFF
(3.5119450092315674) can1 18FEF131#F7FFFFC3CCFFFFF0
(3.5138936042785645) can1 18FEF031#FFFFFFFFFFFCCCFF
(3.515840530395508) can1 18FF4831#0000FFFF00000000
(3.5178277492523193) can1 18FEF231#FFFFFFFFFFFFFFFF
(3.5197720527648926) can1 0CF00331#FFFFFFFFFFFFFFFF
(3.5217134952545166) can1 18FEE000#73490300BCE03300
(3.5236639976501465) can1 0CF00203#C00000FFF7000003
(3.5256147384643555) can1 0CF00300#D10000FFFF0F6A7D
(3.5275685787200928) can1 0CF00C03#00FB0000FFFFFFFF
(3.5295846462249756) can1 0CFD9200#F4FFFAFFFFFFFFFF
(3.53153395652771) can1 18FEF200#00000000AA08FAFF
(3.533487319946289) can1 18FEF200#00000000AA08FAFF
(3.535435676574707) can1 18F00F00#FFFFFFFFFFFFFFFF
(3.537389039993286) can1 0CF00400#0E7D7D0000000F7D
(3.539341688156128) can1 18FEDB00#FFFF7D00FFFFFFFF
(3.541297197341919) can1 0C010305#FFFFFFFFFFF3FFFF
(3.543256998062134) can1 0CF00203#C00000FFF7000003
(3.5452136993408203) can1 18FEDF00#7DA0287D7DFFFFF0
(3.547168731689453) can1 18FEF200#00000000AA08FAFF
(3.5491015911102295) can1 10FCFD00#FFFFFFFF9051FFFF
(3.5510380268096924) can1 0CF00300#D10000FFFF0F6A7D
(3.5529732704162598) can1 0CF00203#C00000FFF7000003
(3.554901123046875) can1 0CF00C03#00FB0000FFFFFFFF
(3.5568625926971436) can1 18F00100#FFFFFFFFFFFFFFFF
(3.5588152408599854) can1 0CF00400#0E7D7D0000000F7D
(3.5607759952545166) can1 18FEF600#FF0039FFFFFFFFFF
(3.5627431869506836) can1 0CF00203#C00000FFF7000003
(3.5646908283233643) can1 18FEDF00#7DA0287D7DFFFFF0
(3.5667285919189453) can1 0CF00300#D10000FFFF0F6A7D
(3.5686800479888916) can1 0CF00203#C00000FFF7000003
(3.5706260204315186) can1 0CF00A00#00000000FFFFFFFF
(3.57257342338562) can1 0CF00C03#00FB0000FFFFFFFF
(3.5745067596435547) can1 18FEF000#FFFFFFE015FFFFFF
(3.5764431953430176) can1 18F00503#7D00007D4E204E43
(3.57839035987854) can1 18F00E00#FFFFFFFFFFFFFFFF
(3.580340623855591) can1 18FE4A03#031F4FFFFFF3FFFF
(3.5822980403900146) can1 18F03300#FFFFFFFFFFFFFFFF
(3.584226608276367) can1 0CF00400#0E7D7D0000000F7D
(3.586160898208618) can1 0CF00331#FFFFFFFFFFFFFFFF
(3.588064670562744) can1 18FCF200#FAFFFFFFFFFFFFFF
(3.589994192123413) can1 0CF00203#C00000FFF7000003
(3.5920097827911377) can1 18FEDF00#7DA0287D7DFFFFF0
(3.593964099884033) can1 18FDC600#FC04FFFFFFFFFFFF
(3.5959038734436035) can1 18F00F00#FFFFFFFFFFFFFFFF
(3.597811222076416) can1 0CF00300#D10000FFFF0F6A7D
(3.599769115447998) can1 0C010305#FFFFFFFFFFF3FFFF
(3.601705551147461) can1 0CF00203#C00000FFF7000003
(3.603642702102661) can1 18FEF100#FF0000FCFF6800CF
(3.605576515197754) can1 0CFD9200#F4FFFAFFFFFFFFFF
(3.607532262802124) can1 0CF00C03#00FB0000FFFFFFFF
(3.6094741821289062) can1 18F0010B#CFFFF0FFFFDCFFFF
(3.611407995223999) can1 0CF00400#0E7D7D0000000F7D
(3.6133437156677246) can1 10FDA300#FFFF26FFFFFFFFFF
(3.6153502464294434) can1 0CF00203#C00000FFF7000003
(3.617295265197754) can1 18F00029#F07D7DF329FFFF3C
(3.619227886199951) can1 18FEBF0B#00007D7D7D7DFFFF
(3.6211636066436768) can1 18FEDF00#7DA0287D7DFFFFF0
(3.623094081878662) can1 18FCDC00#9FFFFFFF9C680000
(3.6250245571136475) can1 0CF00203#C00000FFF7000003
(3.626955986022949) can1 0CF00300#D10000FFFF0F6A7D
(3.6288812160491943) can1 0CF00C03#00FB0000FFFFFFFF
(3.6308093070983887) can1 1CFE9200#FF5C7DFFFFFF0000
(3.6327478885650635) can1 0CF00400#0E7D7D0000000F7D
(3.634673833847046) can1 0CF00A00#00000000FFFFFFFF
(3.636596918106079) can1 0CF00203#C00000FFF7000003
(3.6385347843170166) can1 18FD9400#0000FFFFFFFFFFFF
(3.640475273132324) can1 18F00E00#FFFFFFFFFFFFFFFF
(3.6424038410186768) can1 18F03300#FFFFFFFFFFFFFFFF
(3.6444895267486572) can1 18FEF200#00000000AA08FAFF
(3.6464245319366455) can1 18FEDF00#7DA0287D7DFFFFF0
(3.648402690887451) can1 18F00131#FFFFFF3F00FFFFFF
(3.6503734588623047) can1 18FEF131#F7FFFFC3CCFFFFF0
(3.6523194313049316) can1 18FEF031#FFFFFFFFFFFCCCFF
(3.654461622238159) can1 18FF4831#0000FFFF00000000
(3.656409978866577) can1 18FEF231#FFFFFFFFFFFFFFFF
(3.6583504676818848) can1 0CF00331#FFFFFFFFFFFFFFFF
(3.660282850265503) can1 18FEE000#73490300BCE03300
(3.662208318710327) can1 0CF00203#C00000FFF7000003
(3.664134979248047) can1 0CF00300#D10000FFFF0F6A7D
(3.666058301925659) can1 0CF00C03#00FB0000FFFFFFFF
(3.6680002212524414) can1 18FEF200#00000000AA08FAFF
(3.6699399948120117) can1 18F00F00#FFFFFFFFFFFFFFFF
(3.6718788146972656) can1 0CF00400#0E7D7D0000000F7D
(3.6738131046295166) can1 0C010305#FFFFFFFFFFF3FFFF
(3.6757450103759766) can1 0CF00203#C00000FFF7000003
(3.6776773929595947) can1 18FEDF00#7DA0287D7DFFFFF0
(3.6796152591705322) can1 10FCFD00#FFFFFFFF9051FFFF
(3.681546211242676) can1 0CF00300#D10000FFFF0F6A7D
(3.6834797859191895) can1 0CF00203#C00000FFF7000003
(3.685411214828491) can1 0CF00C03#00FB0000FFFFFFFF
(3.6873393058776855) can1 18F00100#FFFFFFFFFFFFFFFF
(3.6892731189727783) can1 0CF00400#0E7D7D0000000F7D
(3.6911990642547607) can1 0CF00203#C00000FFF7000003
(3.6931345462799072) can1 18FEDF00#7DA0287D7DFFFFF0
(3.6950690746307373) can1 0CF00300#D10000FFFF0F6A7D
(3.6970229148864746) can1 0CF00203#C00000FFF7000003
(3.6989595890045166) can1 0CF00A00#00000000FFFFFFFF
(3.7008883953094482) can1 0CF00C03#00FB0000FFFFFFFF
(3.702815294265747) can1 18FEF000#FFFFFFE015FFFFFF
(3.704744815826416) can1 18F00503#7D00007D4E204E43
(3.706782102584839) can1 18F00E00#FFFFFFFFFFFFFFFF
(3.708717107772827) can1 18FE4A03#031F4FFFFFF3FFFF
(3.710728406906128) can1 18F03300#FFFFFFFFFFFFFFFF
(3.7126624584198) can1 0CF00400#0E7D7D0000000F7D
(3.714590549468994) can1 0CF00331#FFFFFFFFFFFFFFFF
(3.716543197631836) can1 18FCF200#FAFFFFFFFFFFFFFF
(3.718482732772827) can1 0CF00203#C00000FFF7000003
(3.720417022705078) can1 18FEDF00#7DA0287D7DFFFFF0
(3.722348213195801) can1 18F00F00#FFFFFFFFFFFFFFFF
(3.7242848873138428) can1 18FEF200#00000000AA08FAFF
(3.7262156009674072) can1 0CF00300#D10000FFFF0F6A7D
(3.728174924850464) can1 0C010305#FFFFFFFFFFF3FFFF
(3.730118989944458) can1 18FEF200#00000000AA08FAFF
(3.7320616245269775) can1 0CF00203#C00000FFF7000003
(3.7339937686920166) can1 18FEF100#FF0000FCFF6800CF
(3.735926389694214) can1 0CF00C03#00FB0000FFFFFFFF
(3.7379143238067627) can1 18F0010B#CFFFF0FFFFDCFFFF
(3.7398457527160645) can1 0CF00400#0E7D7D0000000F7D
(3.741788387298584) can1 10FDA300#FFFF26FFFFFFFFFF
(3.743729829788208) can1 0CF00203#C00000FFF7000003
(3.7456674575805664) can1 18F00029#F07D7DF329FFFF3C
(3.747620105743408) can1 18FEBF0B#00007D7D7D7DFFFF
(3.749556541442871) can1 18FEDF00#7DA0287D7DFFFFF0
(3.751493453979492) can1 18FCDC00#9FFFFFFF9C680000
(3.7534306049346924) can1 0CF00203#C00000FFF7000003
(3.755361318588257) can1 0CF00300#D10000FFFF0F6A7D
(3.7572944164276123) can1 0CF00C03#00FB0000FFFFFFFF
(3.759239435195923) can1 1CFE9200#FF507DFFFFFF0000
(3.7620925903320312) can1 0CF00400#0E7D7D0000000F7D
(3.764082431793213) can1 0CF00A00#00000000FFFFFFFF
(3.7660205364227295) can1 0CF00203#C00000FFF7000003
(3.767958402633667) can1 18FD9400#0000FFFFFFFFFFFF
(3.769987106323242) can1 18F00E00#FFFFFFFFFFFFFFFF
(3.7719244956970215) can1 18F03300#FFFFFFFFFFFFFFFF
(3.7738614082336426) can1 18FEDF00#7DA0287D7DFFFFF0
(3.7757980823516846) can1 18F00131#FFFFFF3F00FFFFFF
(3.777726650238037) can1 18FEF200#00000000AA08FAFF
(3.7796661853790283) can1 18FEF131#F7FFFFC3CCFFFFF0
(3.781604051589966) can1 18FEF031#FFFFFFFFFFFCCCFF
(3.7835335731506348) can1 18FF4831#0000FFFF00000000
(3.785482406616211) can1 18FEF231#FFFFFFFFFFFFFFFF
(3.7874186038970947) can1 0CF00331#FFFFFFFFFFFFFFFF
(3.7893495559692383) can1 18FEE000#73490300BCE03300
(3.791276454925537) can1 0CF00203#C00000FFF7000003
(3.793215274810791) can1 0CF00300#D10000FFFF0F6A7D
(3.7951531410217285) can1 0CF00C03#00FB0000FFFFFFFF
(3.797100782394409) can1 18FEF200#00000000AB08FAFF
(3.7990458011627197) can1 18F00F00#FFFFFFFFFFFFFFFF
(3.8009772300720215) can1 0CF00400#0E7D7D0000000F7D
(3.802901268005371) can1 0C010305#FFFFFFFFFFF3FFFF
(3.8048276901245117) can1 0CF00203#C00000FFF7000003
(3.8068554401397705) can1 18FEDF00#7DA0287D7DFFFFF0
